
**** 08/03/23 10:00:13 ******* PSpice 17.4.0 (Nov 2018) ******* ID# 0 ********

 ** Profile: "SCHEMATIC1-AC"  [ D:\Ian_Jung\workplace\PSpice\OPAMP_1-PSpiceFiles\SCHEMATIC1\AC.sim ] 


 ****     CIRCUIT DESCRIPTION


******************************************************************************




** Creating circuit file "AC.cir" 
** WARNING: THIS AUTOMATICALLY GENERATED FILE MAY BE OVERWRITTEN BY SUBSEQUENT SIMULATIONS

*Libraries: 
* Profile Libraries :
* Local Libraries :
* From [PSPICE NETLIST] section of C:\SPB_Data\cdssetup\OrCAD_PSpice\17.4.0\PSpice.ini file:
.lib "nom.lib" 

*Analysis directives: 
.AC DEC 101 10 10mega
.OPTIONS ADVCONV
.PROBE64 V(alias(*)) I(alias(*)) W(alias(*)) D(alias(*)) NOISE(alias(*)) 
.INC "..\SCHEMATIC1.net" 



**** INCLUDING SCHEMATIC1.net ****
* source OPAMP_1
X_M1         N14684 N14684 N14831 2N7000/PLP
X_M2         N14712 N14839 N14773 2N7000/PLP
X_M5         N14800 N14824 N14773 2N7000/PLP
X_M7         N14949 N14684 N14831 2N7000/PLP
X_M8         N14773 N14684 N14831 2N7000/PLP
X_M9         N14800 N14712 N14692 BS250/PLP
X_M10         N14949 N14800 N14692 BS250/PLP
X_M11         N14712 N14712 N14692 BS250/PLP
R_R1         N14839 0  1k TC=0,0 
R_R2         N14839 N14949  10k TC=0,0 
I_I1         N14692 N14684 DC {vr}  
V_V2         N14692 0 5Vdc
V_V3         0 N14831 5Vdc
C_C1         N14800 N14949  1n  TC=0,0 
V_V4         N14824 0 DC 0Vdc AC 1Vac 
.PARAM  r2=1k vr=10u

**** RESUMING AC.cir ****
.END

**** 08/03/23 10:00:13 ******* PSpice 17.4.0 (Nov 2018) ******* ID# 0 ********

 ** Profile: "SCHEMATIC1-AC"  [ D:\Ian_Jung\workplace\PSpice\OPAMP_1-PSpiceFiles\SCHEMATIC1\AC.sim ] 


 ****     Diode MODEL PARAMETERS


******************************************************************************




               X_M1.Dbody      X_M2.Dbody      X_M5.Dbody      X_M7.Dbody      
          IS  125.000000E-15  125.000000E-15  125.000000E-15  125.000000E-15 
           N    1.023           1.023           1.023           1.023        
         IKF   18.01           18.01           18.01           18.01         
          BV   60              60              60              60            
         IBV   10.000000E-06   10.000000E-06   10.000000E-06   10.000000E-06 
          RS    1.281           1.281           1.281           1.281        
          TT  161.600000E-09  161.600000E-09  161.600000E-09  161.600000E-09 
         CJO   46.300000E-12   46.300000E-12   46.300000E-12   46.300000E-12 
          VJ     .4519           .4519           .4519           .4519       
           M     .3423           .3423           .3423           .3423       


               X_M8.Dbody      X_M9.Dbody      X_M10.Dbody     X_M11.Dbody     
          IS  125.000000E-15   75.320000E-15   75.320000E-15   75.320000E-15 
           N    1.023           1.016           1.016           1.016        
         IKF   18.01                                                         
          BV   60              45              45              45            
         IBV   10.000000E-06   10.000000E-06   10.000000E-06   10.000000E-06 
          RS    1.281           1.245           1.245           1.245        
          TT  161.600000E-09   86.560000E-09   86.560000E-09   86.560000E-09 
         CJO   46.300000E-12   53.220000E-12   53.220000E-12   53.220000E-12 
          VJ     .4519           .5392           .5392           .5392       
           M     .3423           .3583           .3583           .3583       


**** 08/03/23 10:00:13 ******* PSpice 17.4.0 (Nov 2018) ******* ID# 0 ********

 ** Profile: "SCHEMATIC1-AC"  [ D:\Ian_Jung\workplace\PSpice\OPAMP_1-PSpiceFiles\SCHEMATIC1\AC.sim ] 


 ****     MOSFET MODEL PARAMETERS


******************************************************************************




               X_M1.MOST1      X_M1.MOST2      X_M2.MOST1      X_M2.MOST2      
               NMOS            NMOS            NMOS            NMOS            
       LEVEL    3               1               3               1            
           L    2.000000E-06    2.000000E-06    2.000000E-06    2.000000E-06 
           W    9.700000E-03    9.700000E-03    9.700000E-03    9.700000E-03 
         VTO    2              -4.73            2              -4.73         
          KP   20.780000E-06   20.780000E-06   20.780000E-06   20.780000E-06 
       GAMMA    0               0               0               0            
         PHI     .6              .6              .6              .6          
      LAMBDA    0               0               0               0            
          RD    1.186                           1.186                        
          RS     .02             .02             .02             .02         
          IS   10.000000E-15   10.000000E-15   10.000000E-15   10.000000E-15 
          JS    0               0               0               0            
          PB     .8              .8              .8              .8          
        PBSW     .8              .8              .8              .8          
          CJ    0               0               0               0            
        CJSW    0               0               0               0            
        CGSO    0               0               0               0            
        CGDO    0               0               0               0            
        CGBO    0               0               0               0            
         TOX  100.000000E-09    0             100.000000E-09    0            
          XJ    0               0               0               0            
       UCRIT   10.000000E+03   10.000000E+03   10.000000E+03   10.000000E+03 
      DIOMOD    1               1               1               1            
         VFB    0               0               0               0            
        LETA    0               0               0               0            
        WETA    0               0               0               0            
          U0    0               0               0               0            
        TEMP    0               0               0               0            
         VDD    5               5               5               5            
       XPART    0               0               0               0            


               X_M5.MOST1      X_M5.MOST2      X_M7.MOST1      X_M7.MOST2      
               NMOS            NMOS            NMOS            NMOS            
       LEVEL    3               1               3               1            
           L    2.000000E-06    2.000000E-06    2.000000E-06    2.000000E-06 
           W    9.700000E-03    9.700000E-03    9.700000E-03    9.700000E-03 
         VTO    2              -4.73            2              -4.73         
          KP   20.780000E-06   20.780000E-06   20.780000E-06   20.780000E-06 
       GAMMA    0               0               0               0            
         PHI     .6              .6              .6              .6          
      LAMBDA    0               0               0               0            
          RD    1.186                           1.186                        
          RS     .02             .02             .02             .02         
          IS   10.000000E-15   10.000000E-15   10.000000E-15   10.000000E-15 
          JS    0               0               0               0            
          PB     .8              .8              .8              .8          
        PBSW     .8              .8              .8              .8          
          CJ    0               0               0               0            
        CJSW    0               0               0               0            
        CGSO    0               0               0               0            
        CGDO    0               0               0               0            
        CGBO    0               0               0               0            
         TOX  100.000000E-09    0             100.000000E-09    0            
          XJ    0               0               0               0            
       UCRIT   10.000000E+03   10.000000E+03   10.000000E+03   10.000000E+03 
      DIOMOD    1               1               1               1            
         VFB    0               0               0               0            
        LETA    0               0               0               0            
        WETA    0               0               0               0            
          U0    0               0               0               0            
        TEMP    0               0               0               0            
         VDD    5               5               5               5            
       XPART    0               0               0               0            


               X_M8.MOST1      X_M8.MOST2      X_M9.MOST1      X_M9.MOST2      
               NMOS            NMOS            PMOS            PMOS            
       LEVEL    3               1               3               1            
           L    2.000000E-06    2.000000E-06    2.000000E-06    2.000000E-06 
           W    9.700000E-03    9.700000E-03    7.600000E-03    7.600000E-03 
         VTO    2              -4.73           -2.3             2.43         
          KP   20.780000E-06   20.780000E-06   10.330000E-06   10.330000E-06 
       GAMMA    0               0               0               0            
         PHI     .6              .6              .6              .6          
      LAMBDA    0               0               0               0            
          RD    1.186                           4.014                        
          RS     .02             .02             .02             .02         
          IS   10.000000E-15   10.000000E-15   10.000000E-15   10.000000E-15 
          JS    0               0               0               0            
          PB     .8              .8              .8              .8          
        PBSW     .8              .8              .8              .8          
          CJ    0               0               0               0            
        CJSW    0               0               0               0            
        CGSO    0               0               0               0            
        CGDO    0               0               0               0            
        CGBO    0               0               0               0            
         TOX  100.000000E-09    0             100.000000E-09    0            
          XJ    0               0               0               0            
       UCRIT   10.000000E+03   10.000000E+03   10.000000E+03   10.000000E+03 
      DIOMOD    1               1               1               1            
         VFB    0               0               0               0            
        LETA    0               0               0               0            
        WETA    0               0               0               0            
          U0    0               0               0               0            
        TEMP    0               0               0               0            
         VDD    5               5               5               5            
       XPART    0               0               0               0            


               X_M10.MOST1     X_M10.MOST2     X_M11.MOST1     X_M11.MOST2     
               PMOS            PMOS            PMOS            PMOS            
       LEVEL    3               1               3               1            
           L    2.000000E-06    2.000000E-06    2.000000E-06    2.000000E-06 
           W    7.600000E-03    7.600000E-03    7.600000E-03    7.600000E-03 
         VTO   -2.3             2.43           -2.3             2.43         
          KP   10.330000E-06   10.330000E-06   10.330000E-06   10.330000E-06 
       GAMMA    0               0               0               0            
         PHI     .6              .6              .6              .6          
      LAMBDA    0               0               0               0            
          RD    4.014                           4.014                        
          RS     .02             .02             .02             .02         
          IS   10.000000E-15   10.000000E-15   10.000000E-15   10.000000E-15 
          JS    0               0               0               0            
          PB     .8              .8              .8              .8          
        PBSW     .8              .8              .8              .8          
          CJ    0               0               0               0            
        CJSW    0               0               0               0            
        CGSO    0               0               0               0            
        CGDO    0               0               0               0            
        CGBO    0               0               0               0            
         TOX  100.000000E-09    0             100.000000E-09    0            
          XJ    0               0               0               0            
       UCRIT   10.000000E+03   10.000000E+03   10.000000E+03   10.000000E+03 
      DIOMOD    1               1               1               1            
         VFB    0               0               0               0            
        LETA    0               0               0               0            
        WETA    0               0               0               0            
          U0    0               0               0               0            
        TEMP    0               0               0               0            
         VDD    5               5               5               5            
       XPART    0               0               0               0            


**** 08/03/23 10:00:13 ******* PSpice 17.4.0 (Nov 2018) ******* ID# 0 ********

 ** Profile: "SCHEMATIC1-AC"  [ D:\Ian_Jung\workplace\PSpice\OPAMP_1-PSpiceFiles\SCHEMATIC1\AC.sim ] 


 ****     SMALL SIGNAL BIAS SOLUTION       TEMPERATURE =   27.000 DEG C


******************************************************************************



 NODE   VOLTAGE     NODE   VOLTAGE     NODE   VOLTAGE     NODE   VOLTAGE


(N14684)   -2.9859 (N14692)    5.0000 (N14712)    2.6840 (N14773)   -2.0100     

(N14800)    2.6774 (N14824)    0.0000 (N14831)   -5.0000 (N14839)-90.75E-12     

(N14949) 476.8E-09 (X_M1.4)   -2.9859 (X_M2.4)    2.6840 (X_M5.4)    2.6774     

(X_M7.4) 476.8E-09 (X_M8.4)   -2.0100 (X_M9.4)    2.6774 (X_M10.4)     .2474    

(X_M11.4)    2.6840                   




    VOLTAGE SOURCE CURRENTS
    NAME         CURRENT

    V_V2        -3.000E-05
    V_V3        -3.000E-05
    V_V4         0.000E+00

    TOTAL POWER DISSIPATION   3.00E-04  WATTS



          JOB CONCLUDED

**** 08/03/23 10:00:13 ******* PSpice 17.4.0 (Nov 2018) ******* ID# 0 ********

 ** Profile: "SCHEMATIC1-AC"  [ D:\Ian_Jung\workplace\PSpice\OPAMP_1-PSpiceFiles\SCHEMATIC1\AC.sim ] 


 ****     JOB STATISTICS SUMMARY


******************************************************************************



  Total job time (using Solver 1)   =         .06
