
**** 08/22/23 18:42:40 ******* PSpice 17.4.0 (Nov 2018) ******* ID# 0 ********

 ** Profile: "SCHEMATIC1-AC_sweep"  [ D:\Ian_Jung\workplace\PSpice\Mission_5_OPAMP-PSpiceFiles\SCHEMATIC1\AC_sweep.sim ] 


 ****     CIRCUIT DESCRIPTION


******************************************************************************




** Creating circuit file "AC_sweep.cir" 
** WARNING: THIS AUTOMATICALLY GENERATED FILE MAY BE OVERWRITTEN BY SUBSEQUENT SIMULATIONS

*Libraries: 
* Profile Libraries :
* Local Libraries :
* From [PSPICE NETLIST] section of C:\SPB_Data\cdssetup\OrCAD_PSpice\17.4.0\PSpice.ini file:
.lib "nom.lib" 

*Analysis directives: 
.AC DEC 101 100 100k
.OPTIONS ADVCONV
.PROBE64 V(alias(*)) I(alias(*)) W(alias(*)) D(alias(*)) NOISE(alias(*)) 
.INC "..\SCHEMATIC1.net" 



**** INCLUDING SCHEMATIC1.net ****
* source MISSION_5_OPAMP
X_U1A         N14720 LPF_OUT VCC 0 LPF_OUT TLC1078/101/TI
R_R3         E1 N14716  {R} TC=0,0 
R_R1         N14716 N14720  {R} TC=0,0 
C_C2         0 N14720  {C}  TC=0,0 
C_C3         N14716 LPF_OUT  {2*C}  TC=0,0 
V_V2         VCC 0 5Vdc
R_R4         VCC REF  {R} TC=0,0 
R_R5         REF 0  {R} TC=0,0 
C_C4         0 REF  1u  TC=0,0 
X_U1B         N15354 N15399 VCC 0 N15399 TLC1078/101/TI
C_C5         LPF_OUT N15350  {5*C}  TC=0,0 
C_C6         N15350 N15354  {5*C}  TC=0,0 
R_R6         N15350 N15399  {R} TC=0,0 
R_R7         REF N15354  {2*R} TC=0,0 
X_U2B         REF N20451 VCC 0 E1 TLC1078/101/TI
C_C7         E2 N20447  360n  TC=0,0 
R_R8         N20447 N20451  3k TC=0,0 
R_R9         N20451 E1  30k TC=0,0 
V_V3         E2 0  
+SIN 2.5 1m 1k 0 0 0
.PARAM  c=1500pf r=7.5k

**** RESUMING AC_sweep.cir ****
.END

**** 08/22/23 18:42:40 ******* PSpice 17.4.0 (Nov 2018) ******* ID# 0 ********

 ** Profile: "SCHEMATIC1-AC_sweep"  [ D:\Ian_Jung\workplace\PSpice\Mission_5_OPAMP-PSpiceFiles\SCHEMATIC1\AC_sweep.sim ] 


 ****     Diode MODEL PARAMETERS


******************************************************************************




               X_U1A.DX        X_U1B.DX        X_U2B.DX        
          IS  800.000000E-18  800.000000E-18  800.000000E-18 


**** 08/22/23 18:42:40 ******* PSpice 17.4.0 (Nov 2018) ******* ID# 0 ********

 ** Profile: "SCHEMATIC1-AC_sweep"  [ D:\Ian_Jung\workplace\PSpice\Mission_5_OPAMP-PSpiceFiles\SCHEMATIC1\AC_sweep.sim ] 


 ****     Junction FET MODEL PARAMETERS


******************************************************************************




               X_U1A.JX        X_U1B.JX        X_U2B.JX        
               PJF             PJF             PJF             
         VTO     .039            .039            .039        
        BETA  340.000000E-06  340.000000E-06  340.000000E-06 
          IS  350.000000E-15  350.000000E-15  350.000000E-15 


**** 08/22/23 18:42:40 ******* PSpice 17.4.0 (Nov 2018) ******* ID# 0 ********

 ** Profile: "SCHEMATIC1-AC_sweep"  [ D:\Ian_Jung\workplace\PSpice\Mission_5_OPAMP-PSpiceFiles\SCHEMATIC1\AC_sweep.sim ] 


 ****     SMALL SIGNAL BIAS SOLUTION       TEMPERATURE =   27.000 DEG C


******************************************************************************



 NODE   VOLTAGE     NODE   VOLTAGE     NODE   VOLTAGE     NODE   VOLTAGE


(   E1)    2.5000  (   E2)    2.5000  (  REF)    2.5000  (  VCC)    5.0000      

(N14716)    2.5000 (N14720)    2.5000 (N15350)    2.5000 (N15354)    2.5000     

(N15399)    2.5000 (N20447)    2.5000 (N20451)    2.5000 (LPF_OUT)    2.5000    

(X_U1A.6)-101.4E-09                   (X_U1A.7)    2.5000                       

(X_U1A.8)    2.5000                   (X_U1A.9)    0.0000                       

(X_U1B.6)-101.4E-09                   (X_U1B.7)    2.5000                       

(X_U1B.8)    2.5000                   (X_U1B.9)    0.0000                       

(X_U2B.6)-101.4E-09                   (X_U2B.7)    2.5000                       

(X_U2B.8)    2.5000                   (X_U2B.9)    0.0000                       

(X_U1A.10)    2.5712                  (X_U1A.11)    -.4837                      

(X_U1A.12)    -.4837                  (X_U1A.53)    3.4000                      

(X_U1A.54)     .5400                  (X_U1A.60)    -.5000                      

(X_U1A.90)-533.2E-12                  (X_U1A.91)   25.0000                      

(X_U1A.92)  -25.0000                  (X_U1A.99)    2.5000                      

(X_U1B.10)    2.5712                  (X_U1B.11)    -.4837                      

(X_U1B.12)    -.4837                  (X_U1B.53)    3.4000                      

(X_U1B.54)     .5400                  (X_U1B.60)    -.5000                      

(X_U1B.90)-816.6E-12                  (X_U1B.91)   25.0000                      

(X_U1B.92)  -25.0000                  (X_U1B.99)    2.5000                      

(X_U2B.10)    2.5712                  (X_U2B.11)    -.4837                      

(X_U2B.12)    -.4837                  (X_U2B.53)    3.4000                      

(X_U2B.54)     .5400                  (X_U2B.60)    -.5000                      

(X_U2B.90)-2.693E-09                  (X_U2B.91)   25.0000                      

(X_U2B.92)  -25.0000                  (X_U2B.99)    2.5000                  




    VOLTAGE SOURCE CURRENTS
    NAME         CURRENT

    V_V2        -3.572E-04
    V_V3         0.000E+00
    X_U1A.VAD    7.047E-07
    X_U1A.VB    -1.014E-12
    X_U1A.VC     9.008E-13
    X_U1A.VE     1.961E-12
    X_U1A.VLIM  -5.332E-13
    X_U1A.VLP   -2.500E-11
    X_U1A.VLN   -2.500E-11
    X_U1B.VAD    7.047E-07
    X_U1B.VB    -1.014E-12
    X_U1B.VC     9.008E-13
    X_U1B.VE     1.961E-12
    X_U1B.VLIM  -8.166E-13
    X_U1B.VLP   -2.500E-11
    X_U1B.VLN   -2.500E-11
    X_U2B.VAD    7.047E-07
    X_U2B.VB    -1.014E-12
    X_U2B.VC     9.008E-13
    X_U2B.VE     1.961E-12
    X_U2B.VLIM  -2.693E-12
    X_U2B.VLP   -2.500E-11
    X_U2B.VLN   -2.500E-11

    TOTAL POWER DISSIPATION   1.79E-03  WATTS


WARNING(ORPSIM-15193): No AC sources -- AC Sweep ignored


          JOB CONCLUDED

**** 08/22/23 18:42:40 ******* PSpice 17.4.0 (Nov 2018) ******* ID# 0 ********

 ** Profile: "SCHEMATIC1-AC_sweep"  [ D:\Ian_Jung\workplace\PSpice\Mission_5_OPAMP-PSpiceFiles\SCHEMATIC1\AC_sweep.sim ] 


 ****     JOB STATISTICS SUMMARY


******************************************************************************



  Total job time (using Solver 1)   =         .41
