
**** 07/24/23 11:54:13 ******* PSpice 17.4.0 (Nov 2018) ******* ID# 0 ********

 ** Profile: "SCHEMATIC1-test"  [ D:\Ian_Jung\workplace\PSpice\Electric_5-PSpiceFiles\SCHEMATIC1\test.sim ] 


 ****     CIRCUIT DESCRIPTION


******************************************************************************




** Creating circuit file "test.cir" 
** WARNING: THIS AUTOMATICALLY GENERATED FILE MAY BE OVERWRITTEN BY SUBSEQUENT SIMULATIONS

*Libraries: 
* Profile Libraries :
* Local Libraries :
* From [PSPICE NETLIST] section of C:\SPB_Data\cdssetup\OrCAD_PSpice\17.4.0\PSpice.ini file:
.lib "nom.lib" 

*Analysis directives: 
.OPTIONS ADVCONV
.PROBE64 V(alias(*)) I(alias(*)) W(alias(*)) D(alias(*)) NOISE(alias(*)) 
.INC "..\SCHEMATIC1.net" 



**** INCLUDING SCHEMATIC1.net ****
* source ELECTRIC_5
V_V1         N14458 0 4Vdc
V_V2         N14477 0 8Vdc
V_V3         N14512 0 16Vdc
R_R1         N14458 A  3k TC=0,0 
R_R2         N14477 A  3k TC=0,0 
R_R3         N14512 A  3k TC=0,0 
R_R4         0 A  3k TC=0,0 
V_CONST1         CAL 0 DC {1+2+4}

**** RESUMING test.cir ****
.END

**** 07/24/23 11:54:13 ******* PSpice 17.4.0 (Nov 2018) ******* ID# 0 ********

 ** Profile: "SCHEMATIC1-test"  [ D:\Ian_Jung\workplace\PSpice\Electric_5-PSpiceFiles\SCHEMATIC1\test.sim ] 


 ****     SMALL SIGNAL BIAS SOLUTION       TEMPERATURE =   27.000 DEG C


******************************************************************************



 NODE   VOLTAGE     NODE   VOLTAGE     NODE   VOLTAGE     NODE   VOLTAGE


(    A)    7.0000  (  CAL)    7.0000  (N14458)    4.0000 (N14477)    8.0000     

(N14512)   16.0000 




    VOLTAGE SOURCE CURRENTS
    NAME         CURRENT

    V_V1         1.000E-03
    V_V2        -3.333E-04
    V_V3        -3.000E-03
    V_CONST1     0.000E+00

    TOTAL POWER DISSIPATION   4.67E-02  WATTS



          JOB CONCLUDED

**** 07/24/23 11:54:13 ******* PSpice 17.4.0 (Nov 2018) ******* ID# 0 ********

 ** Profile: "SCHEMATIC1-test"  [ D:\Ian_Jung\workplace\PSpice\Electric_5-PSpiceFiles\SCHEMATIC1\test.sim ] 


 ****     JOB STATISTICS SUMMARY


******************************************************************************



  Total job time (using Solver 1)   =         .02
