
**** 07/24/23 12:24:32 ******* PSpice 17.4.0 (Nov 2018) ******* ID# 0 ********

 ** Profile: "SCHEMATIC1-bias"  [ D:\Ian_Jung\workplace\PSpice\Electric_7-PSpiceFiles\SCHEMATIC1\bias.sim ] 


 ****     CIRCUIT DESCRIPTION


******************************************************************************




** Creating circuit file "bias.cir" 
** WARNING: THIS AUTOMATICALLY GENERATED FILE MAY BE OVERWRITTEN BY SUBSEQUENT SIMULATIONS

*Libraries: 
* Profile Libraries :
* Local Libraries :
* From [PSPICE NETLIST] section of C:\SPB_Data\cdssetup\OrCAD_PSpice\17.4.0\PSpice.ini file:
.lib "nom.lib" 

*Analysis directives: 
.OPTIONS ADVCONV
.PROBE64 V(alias(*)) I(alias(*)) W(alias(*)) D(alias(*)) NOISE(alias(*)) 
.INC "..\SCHEMATIC1.net" 



**** INCLUDING SCHEMATIC1.net ****
* source ELECTRIC_7
V_V1         N14438 0 6Vdc
R_R1         N14438 N14445  1k TC=0,0 
R_R2         0 N14487  1k TC=0,0 
R_R3         N14487 N14445  2k TC=0,0 
R_R4         N14445 A  1k TC=0,0 
R_R5         N14487 B  1k TC=0,0 
R_Rdum         B A  {R} TC=0,0 
V_CONST1         VCC 0 DC {3/0.001}
.PARAM  r=1t

**** RESUMING bias.cir ****
.END

**** 07/24/23 12:24:32 ******* PSpice 17.4.0 (Nov 2018) ******* ID# 0 ********

 ** Profile: "SCHEMATIC1-bias"  [ D:\Ian_Jung\workplace\PSpice\Electric_7-PSpiceFiles\SCHEMATIC1\bias.sim ] 


 ****     SMALL SIGNAL BIAS SOLUTION       TEMPERATURE =   27.000 DEG C


******************************************************************************



 NODE   VOLTAGE     NODE   VOLTAGE     NODE   VOLTAGE     NODE   VOLTAGE


(    A)    4.5000  (    B)    1.5000  (  VCC) 3000.0000  (N14438)    6.0000     

(N14445)    4.5000 (N14487)    1.5000 




    VOLTAGE SOURCE CURRENTS
    NAME         CURRENT

    V_V1        -1.500E-03
    V_CONST1     0.000E+00

    TOTAL POWER DISSIPATION   9.00E-03  WATTS



          JOB CONCLUDED

**** 07/24/23 12:24:32 ******* PSpice 17.4.0 (Nov 2018) ******* ID# 0 ********

 ** Profile: "SCHEMATIC1-bias"  [ D:\Ian_Jung\workplace\PSpice\Electric_7-PSpiceFiles\SCHEMATIC1\bias.sim ] 


 ****     JOB STATISTICS SUMMARY


******************************************************************************



  License check-out time            =         .67
  Total job time (using Solver 1)   =         .02
