
**** 08/01/23 13:55:54 ******* PSpice 17.4.0 (Nov 2018) ******* ID# 0 ********

 ** Profile: "SCHEMATIC1-BJT_Amp"  [ D:\Ian_Jung\workplace\PSpice\NPN_1-PSpiceFiles\SCHEMATIC1\BJT_Amp.sim ] 


 ****     CIRCUIT DESCRIPTION


******************************************************************************




** Creating circuit file "BJT_Amp.cir" 
** WARNING: THIS AUTOMATICALLY GENERATED FILE MAY BE OVERWRITTEN BY SUBSEQUENT SIMULATIONS

*Libraries: 
* Profile Libraries :
* Local Libraries :
* From [PSPICE NETLIST] section of C:\SPB_Data\cdssetup\OrCAD_PSpice\17.4.0\PSpice.ini file:
.lib "nom.lib" 

*Analysis directives: 
.AC DEC 100 1 10meg
.NOISE V([OUT]) V_Vsig 10
.OPTIONS ADVCONV
.PROBE64 V(alias(*)) I(alias(*)) W(alias(*)) D(alias(*)) NOISE(alias(*)) 
.INC "..\SCHEMATIC1.net" 



**** INCLUDING SCHEMATIC1.net ****
* source NPN_1
V_Vsig         IN 0  AC 1
+SIN 0 1mV 10k 0 0 0
R_R1         IN N14565  1k TC=0,0 
R_RB1         N14569 N14624  49k TC=0,0 
R_RB2         0 N14569  27k TC=0,0 
R_RC         N14620 N14624  5k TC=0,0 
R_RE         0 N14735  1.8k TC=0,0 
R_RL         0 OUT  1k TC=0,0 
C_C1         N14565 N14569  3u  TC=0,0 
C_CC         N14620 OUT  4u  TC=0,0 
V_VDC         N14624 0 5V
Q_Q1         N14620 N14569 N14735 Q2N2222
C_C2         0 N14735  75u  TC=0,0 

**** RESUMING BJT_Amp.cir ****
.END

**** 08/01/23 13:55:54 ******* PSpice 17.4.0 (Nov 2018) ******* ID# 0 ********

 ** Profile: "SCHEMATIC1-BJT_Amp"  [ D:\Ian_Jung\workplace\PSpice\NPN_1-PSpiceFiles\SCHEMATIC1\BJT_Amp.sim ] 


 ****     BJT MODEL PARAMETERS


******************************************************************************




               Q2N2222         
               NPN             
       LEVEL    1            
          IS   14.340000E-15 
          BF  255.9          
          NF    1            
         VAF   74.03         
         IKF     .2847       
         ISE   14.340000E-15 
          NE    1.307        
          BR    6.092        
          NR    1            
         ISS    0            
          RB   10            
          RE    0            
          RC    1            
         CJE   22.010000E-12 
         VJE     .75         
         MJE     .377        
         CJC    7.306000E-12 
         VJC     .75         
         MJC     .3416       
        XCJC    1            
         CJS    0            
         VJS     .75         
          TF  411.100000E-12 
         XTF    3            
         VTF    1.7          
         ITF     .6          
          TR   46.910000E-09 
         XTB    1.5          
          KF    0            
          AF    1            
          CN    2.42         
           D     .87         


**** 08/01/23 13:55:54 ******* PSpice 17.4.0 (Nov 2018) ******* ID# 0 ********

 ** Profile: "SCHEMATIC1-BJT_Amp"  [ D:\Ian_Jung\workplace\PSpice\NPN_1-PSpiceFiles\SCHEMATIC1\BJT_Amp.sim ] 


 ****     SMALL SIGNAL BIAS SOLUTION       TEMPERATURE =   27.000 DEG C


******************************************************************************



 NODE   VOLTAGE     NODE   VOLTAGE     NODE   VOLTAGE     NODE   VOLTAGE


(   IN)    0.0000  (  OUT)    0.0000  (N14565)    0.0000 (N14569)    1.7033     

(N14620)    2.0457 (N14624)    5.0000 (N14735)    1.0711 




    VOLTAGE SOURCE CURRENTS
    NAME         CURRENT

    V_Vsig       0.000E+00
    V_VDC       -6.581E-04

    TOTAL POWER DISSIPATION   3.29E-03  WATTS


**** 08/01/23 13:55:54 ******* PSpice 17.4.0 (Nov 2018) ******* ID# 0 ********

 ** Profile: "SCHEMATIC1-BJT_Amp"  [ D:\Ian_Jung\workplace\PSpice\NPN_1-PSpiceFiles\SCHEMATIC1\BJT_Amp.sim ] 


 ****     NOISE ANALYSIS                   TEMPERATURE =   27.000 DEG C


******************************************************************************



     FREQUENCY =  1.000E+00 HZ




 **** TRANSISTOR SQUARED NOISE VOLTAGES (SQ V/HZ)




          Q_Q1       

 RB       1.107E-21

 RC       1.676E-28

 RE       0.000E+00

 IBSN     2.825E-18

 IC       3.033E-20

 IBFN     0.000E+00

 TOTAL    2.856E-18



 **** RESISTOR SQUARED NOISE VOLTAGES (SQ V/HZ)




          R_R1       R_RB1      R_RB2      R_RC       R_RE       R_RL       

 TOTAL    1.063E-20  6.110E-19  1.109E-18  5.079E-20  1.161E-19  1.646E-17





 **** TOTAL OUTPUT NOISE VOLTAGE         =  2.122E-17 SQ V/HZ

                                         =  4.606E-09 V/RT HZ

      TRANSFER FUNCTION VALUE:

        V(OUT)/V_Vsig                    =  2.533E-02

      EQUIVALENT INPUT NOISE AT V_Vsig =  1.819E-07 V/RT HZ

**** 08/01/23 13:55:54 ******* PSpice 17.4.0 (Nov 2018) ******* ID# 0 ********

 ** Profile: "SCHEMATIC1-BJT_Amp"  [ D:\Ian_Jung\workplace\PSpice\NPN_1-PSpiceFiles\SCHEMATIC1\BJT_Amp.sim ] 


 ****     NOISE ANALYSIS                   TEMPERATURE =   27.000 DEG C


******************************************************************************



     FREQUENCY =  1.259E+00 HZ




 **** TRANSISTOR SQUARED NOISE VOLTAGES (SQ V/HZ)




          Q_Q1       

 RB       2.135E-21

 RC       3.031E-28

 RE       0.000E+00

 IBSN     5.061E-18

 IC       5.484E-20

 IBFN     0.000E+00

 TOTAL    5.117E-18



 **** RESISTOR SQUARED NOISE VOLTAGES (SQ V/HZ)




          R_R1       R_RB1      R_RB2      R_RC       R_RE       R_RL       

 TOTAL    3.059E-20  1.109E-18  2.013E-18  7.943E-20  1.799E-19  1.640E-17





 **** TOTAL OUTPUT NOISE VOLTAGE         =  2.493E-17 SQ V/HZ

                                         =  4.993E-09 V/RT HZ

      TRANSFER FUNCTION VALUE:

        V(OUT)/V_Vsig                    =  4.296E-02

      EQUIVALENT INPUT NOISE AT V_Vsig =  1.162E-07 V/RT HZ

**** 08/01/23 13:55:54 ******* PSpice 17.4.0 (Nov 2018) ******* ID# 0 ********

 ** Profile: "SCHEMATIC1-BJT_Amp"  [ D:\Ian_Jung\workplace\PSpice\NPN_1-PSpiceFiles\SCHEMATIC1\BJT_Amp.sim ] 


 ****     NOISE ANALYSIS                   TEMPERATURE =   27.000 DEG C


******************************************************************************



     FREQUENCY =  1.585E+00 HZ




 **** TRANSISTOR SQUARED NOISE VOLTAGES (SQ V/HZ)




          Q_Q1       

 RB       4.295E-21

 RC       5.576E-28

 RE       0.000E+00

 IBSN     9.190E-18

 IC       1.009E-19

 IBFN     0.000E+00

 TOTAL    9.295E-18



 **** RESISTOR SQUARED NOISE VOLTAGES (SQ V/HZ)




          R_R1       R_RB1      R_RB2      R_RC       R_RE       R_RL       

 TOTAL    8.918E-20  2.041E-18  3.704E-18  1.233E-19  2.760E-19  1.630E-17





 **** TOTAL OUTPUT NOISE VOLTAGE         =  3.183E-17 SQ V/HZ

                                         =  5.642E-09 V/RT HZ

      TRANSFER FUNCTION VALUE:

        V(OUT)/V_Vsig                    =  7.335E-02

      EQUIVALENT INPUT NOISE AT V_Vsig =  7.692E-08 V/RT HZ

**** 08/01/23 13:55:54 ******* PSpice 17.4.0 (Nov 2018) ******* ID# 0 ********

 ** Profile: "SCHEMATIC1-BJT_Amp"  [ D:\Ian_Jung\workplace\PSpice\NPN_1-PSpiceFiles\SCHEMATIC1\BJT_Amp.sim ] 


 ****     NOISE ANALYSIS                   TEMPERATURE =   27.000 DEG C


******************************************************************************



     FREQUENCY =  1.995E+00 HZ




 **** TRANSISTOR SQUARED NOISE VOLTAGES (SQ V/HZ)




          Q_Q1       

 RB       8.938E-21

 RC       1.029E-27

 RE       0.000E+00

 IBSN     1.665E-17

 IC       1.862E-19

 IBFN     0.000E+00

 TOTAL    1.685E-17



 **** RESISTOR SQUARED NOISE VOLTAGES (SQ V/HZ)




          R_R1       R_RB1      R_RB2      R_RC       R_RE       R_RL       

 TOTAL    2.590E-19  3.742E-18  6.791E-18  1.893E-19  4.171E-19  1.616E-17





 **** TOTAL OUTPUT NOISE VOLTAGE         =  4.440E-17 SQ V/HZ

                                         =  6.664E-09 V/RT HZ

      TRANSFER FUNCTION VALUE:

        V(OUT)/V_Vsig                    =  1.250E-01

      EQUIVALENT INPUT NOISE AT V_Vsig =  5.331E-08 V/RT HZ

**** 08/01/23 13:55:54 ******* PSpice 17.4.0 (Nov 2018) ******* ID# 0 ********

 ** Profile: "SCHEMATIC1-BJT_Amp"  [ D:\Ian_Jung\workplace\PSpice\NPN_1-PSpiceFiles\SCHEMATIC1\BJT_Amp.sim ] 


 ****     NOISE ANALYSIS                   TEMPERATURE =   27.000 DEG C


******************************************************************************



     FREQUENCY =  2.512E+00 HZ




 **** TRANSISTOR SQUARED NOISE VOLTAGES (SQ V/HZ)




          Q_Q1       

 RB       1.901E-20

 RC       1.875E-27

 RE       0.000E+00

 IBSN     2.951E-17

 IC       3.392E-19

 IBFN     0.000E+00

 TOTAL    2.987E-17



 **** RESISTOR SQUARED NOISE VOLTAGES (SQ V/HZ)




          R_R1       R_RB1      R_RB2      R_RC       R_RE       R_RL       

 TOTAL    7.338E-19  6.695E-18  1.215E-17  2.859E-19  6.187E-19  1.594E-17





 **** TOTAL OUTPUT NOISE VOLTAGE         =  6.630E-17 SQ V/HZ

                                         =  8.143E-09 V/RT HZ

      TRANSFER FUNCTION VALUE:

        V(OUT)/V_Vsig                    =  2.104E-01

      EQUIVALENT INPUT NOISE AT V_Vsig =  3.870E-08 V/RT HZ

**** 08/01/23 13:55:54 ******* PSpice 17.4.0 (Nov 2018) ******* ID# 0 ********

 ** Profile: "SCHEMATIC1-BJT_Amp"  [ D:\Ian_Jung\workplace\PSpice\NPN_1-PSpiceFiles\SCHEMATIC1\BJT_Amp.sim ] 


 ****     NOISE ANALYSIS                   TEMPERATURE =   27.000 DEG C


******************************************************************************



     FREQUENCY =  3.162E+00 HZ




 **** TRANSISTOR SQUARED NOISE VOLTAGES (SQ V/HZ)




          Q_Q1       

 RB       4.070E-20

 RC       3.319E-27

 RE       0.000E+00

 IBSN     5.016E-17

 IC       6.001E-19

 IBFN     0.000E+00

 TOTAL    5.080E-17



 **** RESISTOR SQUARED NOISE VOLTAGES (SQ V/HZ)




          R_R1       R_RB1      R_RB2      R_RC       R_RE       R_RL       

 TOTAL    1.988E-18  1.146E-17  2.080E-17  4.218E-19  8.953E-19  1.564E-17





 **** TOTAL OUTPUT NOISE VOLTAGE         =  1.020E-16 SQ V/HZ

                                         =  1.010E-08 V/RT HZ

      TRANSFER FUNCTION VALUE:

        V(OUT)/V_Vsig                    =  3.463E-01

      EQUIVALENT INPUT NOISE AT V_Vsig =  2.916E-08 V/RT HZ

**** 08/01/23 13:55:54 ******* PSpice 17.4.0 (Nov 2018) ******* ID# 0 ********

 ** Profile: "SCHEMATIC1-BJT_Amp"  [ D:\Ian_Jung\workplace\PSpice\NPN_1-PSpiceFiles\SCHEMATIC1\BJT_Amp.sim ] 


 ****     NOISE ANALYSIS                   TEMPERATURE =   27.000 DEG C


******************************************************************************



     FREQUENCY =  3.981E+00 HZ




 **** TRANSISTOR SQUARED NOISE VOLTAGES (SQ V/HZ)




          Q_Q1       

 RB       8.636E-20

 RC       5.652E-27

 RE       0.000E+00

 IBSN     8.042E-17

 IC       1.021E-18

 IBFN     0.000E+00

 TOTAL    8.153E-17



 **** RESISTOR SQUARED NOISE VOLTAGES (SQ V/HZ)




          R_R1       R_RB1      R_RB2      R_RC       R_RE       R_RL       

 TOTAL    5.068E-18  1.847E-17  3.352E-17  6.029E-19  1.255E-18  1.524E-17





 **** TOTAL OUTPUT NOISE VOLTAGE         =  1.557E-16 SQ V/HZ

                                         =  1.248E-08 V/RT HZ

      TRANSFER FUNCTION VALUE:

        V(OUT)/V_Vsig                    =  5.529E-01

      EQUIVALENT INPUT NOISE AT V_Vsig =  2.257E-08 V/RT HZ

**** 08/01/23 13:55:54 ******* PSpice 17.4.0 (Nov 2018) ******* ID# 0 ********

 ** Profile: "SCHEMATIC1-BJT_Amp"  [ D:\Ian_Jung\workplace\PSpice\NPN_1-PSpiceFiles\SCHEMATIC1\BJT_Amp.sim ] 


 ****     NOISE ANALYSIS                   TEMPERATURE =   27.000 DEG C


******************************************************************************



     FREQUENCY =  5.012E+00 HZ




 **** TRANSISTOR SQUARED NOISE VOLTAGES (SQ V/HZ)




          Q_Q1       

 RB       1.789E-19

 RC       9.231E-27

 RE       0.000E+00

 IBSN     1.204E-16

 IC       1.667E-18

 IBFN     0.000E+00

 TOTAL    1.222E-16



 **** RESISTOR SQUARED NOISE VOLTAGES (SQ V/HZ)




          R_R1       R_RB1      R_RB2      R_RC       R_RE       R_RL       

 TOTAL    1.203E-17  2.775E-17  5.035E-17  8.271E-19  1.691E-18  1.474E-17





 **** TOTAL OUTPUT NOISE VOLTAGE         =  2.296E-16 SQ V/HZ

                                         =  1.515E-08 V/RT HZ

      TRANSFER FUNCTION VALUE:

        V(OUT)/V_Vsig                    =  8.518E-01

      EQUIVALENT INPUT NOISE AT V_Vsig =  1.779E-08 V/RT HZ

**** 08/01/23 13:55:54 ******* PSpice 17.4.0 (Nov 2018) ******* ID# 0 ********

 ** Profile: "SCHEMATIC1-BJT_Amp"  [ D:\Ian_Jung\workplace\PSpice\NPN_1-PSpiceFiles\SCHEMATIC1\BJT_Amp.sim ] 


 ****     NOISE ANALYSIS                   TEMPERATURE =   27.000 DEG C


******************************************************************************



     FREQUENCY =  6.310E+00 HZ




 **** TRANSISTOR SQUARED NOISE VOLTAGES (SQ V/HZ)




          Q_Q1       

 RB       3.573E-19

 RC       1.452E-26

 RE       0.000E+00

 IBSN     1.674E-16

 IC       2.620E-18

 IBFN     0.000E+00

 TOTAL    1.704E-16



 **** RESISTOR SQUARED NOISE VOLTAGES (SQ V/HZ)




          R_R1       R_RB1      R_RB2      R_RC       R_RE       R_RL       

 TOTAL    2.644E-17  3.869E-17  7.021E-17  1.081E-18  2.172E-18  1.418E-17





 **** TOTAL OUTPUT NOISE VOLTAGE         =  3.232E-16 SQ V/HZ

                                         =  1.798E-08 V/RT HZ

      TRANSFER FUNCTION VALUE:

        V(OUT)/V_Vsig                    =  1.263E+00

      EQUIVALENT INPUT NOISE AT V_Vsig =  1.423E-08 V/RT HZ

**** 08/01/23 13:55:54 ******* PSpice 17.4.0 (Nov 2018) ******* ID# 0 ********

 ** Profile: "SCHEMATIC1-BJT_Amp"  [ D:\Ian_Jung\workplace\PSpice\NPN_1-PSpiceFiles\SCHEMATIC1\BJT_Amp.sim ] 


 ****     NOISE ANALYSIS                   TEMPERATURE =   27.000 DEG C


******************************************************************************



     FREQUENCY =  7.943E+00 HZ




 **** TRANSISTOR SQUARED NOISE VOLTAGES (SQ V/HZ)




          Q_Q1       

 RB       6.818E-19

 RC       2.219E-26

 RE       0.000E+00

 IBSN     2.166E-16

 IC       4.001E-18

 IBFN     0.000E+00

 TOTAL    2.213E-16



 **** RESISTOR SQUARED NOISE VOLTAGES (SQ V/HZ)




          R_R1       R_RB1      R_RB2      R_RC       R_RE       R_RL       

 TOTAL    5.388E-17  5.015E-17  9.101E-17  1.341E-18  2.648E-18  1.360E-17





 **** TOTAL OUTPUT NOISE VOLTAGE         =  4.339E-16 SQ V/HZ

                                         =  2.083E-08 V/RT HZ

      TRANSFER FUNCTION VALUE:

        V(OUT)/V_Vsig                    =  1.803E+00

      EQUIVALENT INPUT NOISE AT V_Vsig =  1.155E-08 V/RT HZ

**** 08/01/23 13:55:54 ******* PSpice 17.4.0 (Nov 2018) ******* ID# 0 ********

 ** Profile: "SCHEMATIC1-BJT_Amp"  [ D:\Ian_Jung\workplace\PSpice\NPN_1-PSpiceFiles\SCHEMATIC1\BJT_Amp.sim ] 


 ****     NOISE ANALYSIS                   TEMPERATURE =   27.000 DEG C


******************************************************************************



     FREQUENCY =  1.000E+01 HZ




 **** TRANSISTOR SQUARED NOISE VOLTAGES (SQ V/HZ)




          Q_Q1       

 RB       1.239E-18

 RC       3.328E-26

 RE       0.000E+00

 IBSN     2.623E-16

 IC       5.993E-18

 IBFN     0.000E+00

 TOTAL    2.695E-16



 **** RESISTOR SQUARED NOISE VOLTAGES (SQ V/HZ)




          R_R1       R_RB1      R_RB2      R_RC       R_RE       R_RL       

 TOTAL    1.023E-16  6.084E-17  1.104E-16  1.580E-18  3.059E-18  1.307E-17





 **** TOTAL OUTPUT NOISE VOLTAGE         =  5.608E-16 SQ V/HZ

                                         =  2.368E-08 V/RT HZ

      TRANSFER FUNCTION VALUE:

        V(OUT)/V_Vsig                    =  2.484E+00

      EQUIVALENT INPUT NOISE AT V_Vsig =  9.533E-09 V/RT HZ

**** 08/01/23 13:55:54 ******* PSpice 17.4.0 (Nov 2018) ******* ID# 0 ********

 ** Profile: "SCHEMATIC1-BJT_Amp"  [ D:\Ian_Jung\workplace\PSpice\NPN_1-PSpiceFiles\SCHEMATIC1\BJT_Amp.sim ] 


 ****     NOISE ANALYSIS                   TEMPERATURE =   27.000 DEG C


******************************************************************************



     FREQUENCY =  1.259E+01 HZ




 **** TRANSISTOR SQUARED NOISE VOLTAGES (SQ V/HZ)




          Q_Q1       

 RB       2.145E-18

 RC       4.938E-26

 RE       0.000E+00

 IBSN     3.004E-16

 IC       8.884E-18

 IBFN     0.000E+00

 TOTAL    3.114E-16



 **** RESISTOR SQUARED NOISE VOLTAGES (SQ V/HZ)




          R_R1       R_RB1      R_RB2      R_RC       R_RE       R_RL       

 TOTAL    1.823E-16  6.979E-17  1.267E-16  1.782E-18  3.360E-18  1.262E-17





 **** TOTAL OUTPUT NOISE VOLTAGE         =  7.079E-16 SQ V/HZ

                                         =  2.661E-08 V/RT HZ

      TRANSFER FUNCTION VALUE:

        V(OUT)/V_Vsig                    =  3.316E+00

      EQUIVALENT INPUT NOISE AT V_Vsig =  8.023E-09 V/RT HZ

**** 08/01/23 13:55:54 ******* PSpice 17.4.0 (Nov 2018) ******* ID# 0 ********

 ** Profile: "SCHEMATIC1-BJT_Amp"  [ D:\Ian_Jung\workplace\PSpice\NPN_1-PSpiceFiles\SCHEMATIC1\BJT_Amp.sim ] 


 ****     NOISE ANALYSIS                   TEMPERATURE =   27.000 DEG C


******************************************************************************



     FREQUENCY =  1.585E+01 HZ




 **** TRANSISTOR SQUARED NOISE VOLTAGES (SQ V/HZ)




          Q_Q1       

 RB       3.553E-18

 RC       7.273E-26

 RE       0.000E+00

 IBSN     3.290E-16

 IC       1.307E-17

 IBFN     0.000E+00

 TOTAL    3.456E-16



 **** RESISTOR SQUARED NOISE VOLTAGES (SQ V/HZ)




          R_R1       R_RB1      R_RB2      R_RC       R_RE       R_RL       

 TOTAL    3.076E-16  7.660E-17  1.390E-16  1.937E-18  3.522E-18  1.227E-17





 **** TOTAL OUTPUT NOISE VOLTAGE         =  8.865E-16 SQ V/HZ

                                         =  2.977E-08 V/RT HZ

      TRANSFER FUNCTION VALUE:

        V(OUT)/V_Vsig                    =  4.308E+00

      EQUIVALENT INPUT NOISE AT V_Vsig =  6.912E-09 V/RT HZ

**** 08/01/23 13:55:54 ******* PSpice 17.4.0 (Nov 2018) ******* ID# 0 ********

 ** Profile: "SCHEMATIC1-BJT_Amp"  [ D:\Ian_Jung\workplace\PSpice\NPN_1-PSpiceFiles\SCHEMATIC1\BJT_Amp.sim ] 


 ****     NOISE ANALYSIS                   TEMPERATURE =   27.000 DEG C


******************************************************************************



     FREQUENCY =  1.995E+01 HZ




 **** TRANSISTOR SQUARED NOISE VOLTAGES (SQ V/HZ)




          Q_Q1       

 RB       5.638E-18

 RC       1.061E-25

 RE       0.000E+00

 IBSN     3.484E-16

 IC       1.906E-17

 IBFN     0.000E+00

 TOTAL    3.731E-16



 **** RESISTOR SQUARED NOISE VOLTAGES (SQ V/HZ)




          R_R1       R_RB1      R_RB2      R_RC       R_RE       R_RL       

 TOTAL    4.939E-16  8.134E-17  1.476E-16  2.050E-18  3.533E-18  1.201E-17





 **** TOTAL OUTPUT NOISE VOLTAGE         =  1.113E-15 SQ V/HZ

                                         =  3.337E-08 V/RT HZ

      TRANSFER FUNCTION VALUE:

        V(OUT)/V_Vsig                    =  5.459E+00

      EQUIVALENT INPUT NOISE AT V_Vsig =  6.113E-09 V/RT HZ

**** 08/01/23 13:55:54 ******* PSpice 17.4.0 (Nov 2018) ******* ID# 0 ********

 ** Profile: "SCHEMATIC1-BJT_Amp"  [ D:\Ian_Jung\workplace\PSpice\NPN_1-PSpiceFiles\SCHEMATIC1\BJT_Amp.sim ] 


 ****     NOISE ANALYSIS                   TEMPERATURE =   27.000 DEG C


******************************************************************************



     FREQUENCY =  2.512E+01 HZ




 **** TRANSISTOR SQUARED NOISE VOLTAGES (SQ V/HZ)




          Q_Q1       

 RB       8.570E-18

 RC       1.521E-25

 RE       0.000E+00

 IBSN     3.597E-16

 IC       2.732E-17

 IBFN     0.000E+00

 TOTAL    3.956E-16



 **** RESISTOR SQUARED NOISE VOLTAGES (SQ V/HZ)




          R_R1       R_RB1      R_RB2      R_RC       R_RE       R_RL       

 TOTAL    7.564E-16  8.430E-17  1.530E-16  2.128E-18  3.393E-18  1.183E-17





 **** TOTAL OUTPUT NOISE VOLTAGE         =  1.407E-15 SQ V/HZ

                                         =  3.751E-08 V/RT HZ

      TRANSFER FUNCTION VALUE:

        V(OUT)/V_Vsig                    =  6.755E+00

      EQUIVALENT INPUT NOISE AT V_Vsig =  5.552E-09 V/RT HZ

**** 08/01/23 13:55:54 ******* PSpice 17.4.0 (Nov 2018) ******* ID# 0 ********

