
**** 07/21/23 17:00:04 ******* PSpice 17.4.0 (Nov 2018) ******* ID# 0 ********

 ** Profile: "SCHEMATIC1-bias"  [ D:\Ian_Jung\workplace\PSpice\Exam_8_3-PSpiceFiles\SCHEMATIC1\bias.sim ] 


 ****     CIRCUIT DESCRIPTION


******************************************************************************




** Creating circuit file "bias.cir" 
** WARNING: THIS AUTOMATICALLY GENERATED FILE MAY BE OVERWRITTEN BY SUBSEQUENT SIMULATIONS

*Libraries: 
* Profile Libraries :
* Local Libraries :
* From [PSPICE NETLIST] section of C:\SPB_Data\cdssetup\OrCAD_PSpice\17.4.0\PSpice.ini file:
.lib "nom.lib" 

*Analysis directives: 
.TRAN  0 60Ms 0 
.OPTIONS ADVCONV
.PROBE64 V(alias(*)) I(alias(*)) W(alias(*)) D(alias(*)) NOISE(alias(*)) 
.INC "..\SCHEMATIC1.net" 



**** INCLUDING SCHEMATIC1.net ****
* source EXAM_8_3
D_D6         AC_SEC2 DC_SEC2 D1N4004 
D_D8         N24307 DC_SEC2 D1N4004 
R_R18         0 N24307  1g TC=0,0 
Kn_K1         L_Lpri L_Lsec1 
+ L_Lsec2    0.85 K1041T060_3E2A
V_V4         0 AC_IN  
+SIN 0 230 60 0 0 0
R_R19         N24245 DC_SEC1  1k TC=0,0 
L_Lsec1         AC_SEC1 N24307  356  
R_R17         AC_IN N24477  0.01 TC=0,0 
C_C2         N24245 DC_SEC1  680u  TC=0,0 
L_Lsec2         AC_SEC2 N24307  271  
D_D7         N24669 N24307 D1N4004 
R_R20         N24669 DC_SEC2  1k TC=0,0 
C_C3         N24669 DC_SEC2  220u  TC=0,0 
D_D3         N24245 N24307 D1N4004 
D_D4         N24307 DC_SEC1 D1N4004 
L_Lpri         N24477 0  5200  
D_D5         N24669 AC_SEC2 D1N4004 
D_D1         N24245 AC_SEC1 D1N4004 
D_D2         AC_SEC1 DC_SEC1 D1N4004 

**** RESUMING bias.cir ****
.END

**** 07/21/23 17:00:04 ******* PSpice 17.4.0 (Nov 2018) ******* ID# 0 ********

 ** Profile: "SCHEMATIC1-bias"  [ D:\Ian_Jung\workplace\PSpice\Exam_8_3-PSpiceFiles\SCHEMATIC1\bias.sim ] 


 ****     Diode MODEL PARAMETERS


******************************************************************************




               D1N4004         D1N4001         
          IS   14.110000E-09   14.110000E-09 
           N    1.984           1.984        
         IKF   94.81           94.81         
          BV  600              75            
         IBV   10.000000E-06   10.000000E-06 
          RS     .03389          .03389      
          TT    5.700000E-06    5.700000E-06 
         CJO   25.890000E-12   25.890000E-12 
          VJ     .3245           .3245       
           M     .44             .44         


**** 07/21/23 17:00:04 ******* PSpice 17.4.0 (Nov 2018) ******* ID# 0 ********

 ** Profile: "SCHEMATIC1-bias"  [ D:\Ian_Jung\workplace\PSpice\Exam_8_3-PSpiceFiles\SCHEMATIC1\bias.sim ] 


 ****     Ferromagnetic Core MODEL PARAMETERS


******************************************************************************




               K1041T060_3E2A  K3E2A           
       LEVEL    2               2            
        AREA     .0202                       
        PATH    1.3                          
          MS  353.000000E+03  353.000000E+03 
           A   31.02           31.02         
           C     .7842           .7842       
           K   12.46           12.46         


**** 07/21/23 17:00:04 ******* PSpice 17.4.0 (Nov 2018) ******* ID# 0 ********

 ** Profile: "SCHEMATIC1-bias"  [ D:\Ian_Jung\workplace\PSpice\Exam_8_3-PSpiceFiles\SCHEMATIC1\bias.sim ] 


 ****     INITIAL TRANSIENT SOLUTION       TEMPERATURE =   27.000 DEG C


******************************************************************************



 NODE   VOLTAGE     NODE   VOLTAGE     NODE   VOLTAGE     NODE   VOLTAGE


(AC_IN)    0.0000  (N24245)-2.409E-18 (N24307)-805.0E-27 (N24477)    0.0000     

(N24669) 2.782E-18 (AC_SEC1)-805.0E-27                   (AC_SEC2)-805.0E-27    

(DC_SEC1)-2.455E-18                   (DC_SEC2) 2.736E-18                   




    VOLTAGE SOURCE CURRENTS
    NAME         CURRENT

    V_V4         0.000E+00

    TOTAL POWER DISSIPATION   0.00E+00  WATTS



          JOB CONCLUDED

**** 07/21/23 17:00:04 ******* PSpice 17.4.0 (Nov 2018) ******* ID# 0 ********

 ** Profile: "SCHEMATIC1-bias"  [ D:\Ian_Jung\workplace\PSpice\Exam_8_3-PSpiceFiles\SCHEMATIC1\bias.sim ] 


 ****     JOB STATISTICS SUMMARY


******************************************************************************



  Total job time (using Solver 1)   =         .06
