
**** 07/17/23 20:17:31 ******* PSpice 17.4.0 (Nov 2018) ******* ID# 0 ********

 ** Profile: "SCHEMATIC1-AC_1"  [ D:\Ian_Jung\workplace\PSpice\AC_1-PSpiceFiles\SCHEMATIC1\AC_1.sim ] 


 ****     CIRCUIT DESCRIPTION


******************************************************************************




** Creating circuit file "AC_1.cir" 
** WARNING: THIS AUTOMATICALLY GENERATED FILE MAY BE OVERWRITTEN BY SUBSEQUENT SIMULATIONS

*Libraries: 
* Profile Libraries :
* Local Libraries :
* From [PSPICE NETLIST] section of C:\SPB_Data\cdssetup\OrCAD_PSpice\17.4.0\PSpice.ini file:
.lib "nom.lib" 

*Analysis directives: 
.AC DEC 101 1 10k
.OPTIONS ADVCONV
.PROBE64 V(alias(*)) I(alias(*)) W(alias(*)) D(alias(*)) NOISE(alias(*)) 
.INC "..\SCHEMATIC1.net" 



**** INCLUDING SCHEMATIC1.net ****
* source AC_1
V_V1         N14607 0 DC 0Vdc AC 1Vac 
R_R1         N14607 N14614  33k TC=0,0 
R_R2         N14638 N14672  5.6k TC=0,0 
R_R3         0 N14638  10k TC=0,0 
C_C1         0 N14614  1n  TC=0,0 
X_U1         N14614 N14638 VCC VEE N14672 uA741
V_V2         VCC 0 15Vdc
V_V3         VEE 0 -15Vdc

**** RESUMING AC_1.cir ****
.END

**** 07/17/23 20:17:31 ******* PSpice 17.4.0 (Nov 2018) ******* ID# 0 ********

 ** Profile: "SCHEMATIC1-AC_1"  [ D:\Ian_Jung\workplace\PSpice\AC_1-PSpiceFiles\SCHEMATIC1\AC_1.sim ] 


 ****     Diode MODEL PARAMETERS


******************************************************************************




               X_U1.dx         X_U1.dy         
          IS  800.000000E-18  800.000000E-18 
          RS    1               1.000000E-03 
         CJO                   10.000000E-12 


**** 07/17/23 20:17:31 ******* PSpice 17.4.0 (Nov 2018) ******* ID# 0 ********

 ** Profile: "SCHEMATIC1-AC_1"  [ D:\Ian_Jung\workplace\PSpice\AC_1-PSpiceFiles\SCHEMATIC1\AC_1.sim ] 


 ****     BJT MODEL PARAMETERS


******************************************************************************




               X_U1.qx         
               NPN             
       LEVEL    1            
          IS  800.000000E-18 
          BF   93.75         
          NF    1            
          BR    1            
          NR    1            
         ISS    0            
          RE    0            
          RC    0            
         CJE    0            
         VJE     .75         
         CJC    0            
         VJC     .75         
         MJC     .33         
        XCJC    1            
         CJS    0            
         VJS     .75         
          KF    0            
          AF    1            
          CN    2.42         
           D     .87         


**** 07/17/23 20:17:31 ******* PSpice 17.4.0 (Nov 2018) ******* ID# 0 ********

 ** Profile: "SCHEMATIC1-AC_1"  [ D:\Ian_Jung\workplace\PSpice\AC_1-PSpiceFiles\SCHEMATIC1\AC_1.sim ] 


 ****     SMALL SIGNAL BIAS SOLUTION       TEMPERATURE =   27.000 DEG C


******************************************************************************



 NODE   VOLTAGE     NODE   VOLTAGE     NODE   VOLTAGE     NODE   VOLTAGE


(  VCC)   15.0000  (  VEE)  -15.0000  (N14607)    0.0000 (N14614)    -.0026     

(N14638)    -.0026 (N14672)    -.0036 (X_U1.6) 344.1E-09 (X_U1.7)    -.0036     

(X_U1.8)    -.0036 (X_U1.9)    0.0000 (X_U1.10)    -.6103                       

(X_U1.11)   14.9600                   (X_U1.12)   14.9600                       

(X_U1.13)    -.5964                   (X_U1.14)    -.5964                       

(X_U1.53)   14.0000                   (X_U1.54)  -14.0000                       

(X_U1.90)-181.4E-06                   (X_U1.91)   40.0000                       

(X_U1.92)  -40.0000                   (X_U1.99)    0.0000                   




    VOLTAGE SOURCE CURRENTS
    NAME         CURRENT

    V_V1        -7.972E-08
    V_V2        -1.667E-03
    V_V3         1.667E-03
    X_U1.vb      3.441E-12
    X_U1.vc      1.400E-11
    X_U1.ve      1.591E-11
    X_U1.vlim   -1.814E-07
    X_U1.vlp    -4.000E-11
    X_U1.vln    -4.000E-11

    TOTAL POWER DISSIPATION   5.00E-02  WATTS



          JOB CONCLUDED

**** 07/17/23 20:17:31 ******* PSpice 17.4.0 (Nov 2018) ******* ID# 0 ********

 ** Profile: "SCHEMATIC1-AC_1"  [ D:\Ian_Jung\workplace\PSpice\AC_1-PSpiceFiles\SCHEMATIC1\AC_1.sim ] 


 ****     JOB STATISTICS SUMMARY


******************************************************************************



  Total job time (using Solver 1)   =         .03
