
**** 07/24/23 19:08:46 ******* PSpice 17.4.0 (Nov 2018) ******* ID# 0 ********

 ** Profile: "SCHEMATIC1-test"  [ D:\Ian_Jung\workplace\PSpice\Electric_3-PSpiceFiles\SCHEMATIC1\test.sim ] 


 ****     CIRCUIT DESCRIPTION


******************************************************************************




** Creating circuit file "test.cir" 
** WARNING: THIS AUTOMATICALLY GENERATED FILE MAY BE OVERWRITTEN BY SUBSEQUENT SIMULATIONS

*Libraries: 
* Profile Libraries :
* Local Libraries :
* From [PSPICE NETLIST] section of C:\SPB_Data\cdssetup\OrCAD_PSpice\17.4.0\PSpice.ini file:
.lib "nom.lib" 

*Analysis directives: 
.OPTIONS ADVCONV
.PROBE64 V(alias(*)) I(alias(*)) W(alias(*)) D(alias(*)) NOISE(alias(*)) 
.INC "..\SCHEMATIC1.net" 



**** INCLUDING SCHEMATIC1.net ****
* source ELECTRIC_3
R_R1         N14615 A  {2*R} TC=0,0 
R_R2         N14615 A  {2*R} TC=0,0 
R_R3         A N14677  {3*R} TC=0,0 
R_R4         A N14677  {3*R} TC=0,0 
R_R5         A N14677  {3*R} TC=0,0 
R_R6         B A  {2*R} TC=0,0 
R_R7         C A  {2*R} TC=0,0 
V_V1         N14615 0 0
V_V2         N14677 0 0
I_I1         0 B DC 4mAdc  
I_I2         0 C DC 2mAdc  
V_CONST1         CAL 0 DC {2+1}
.PARAM  r=1k

**** RESUMING test.cir ****
.END

**** 07/24/23 19:08:46 ******* PSpice 17.4.0 (Nov 2018) ******* ID# 0 ********

 ** Profile: "SCHEMATIC1-test"  [ D:\Ian_Jung\workplace\PSpice\Electric_3-PSpiceFiles\SCHEMATIC1\test.sim ] 


 ****     SMALL SIGNAL BIAS SOLUTION       TEMPERATURE =   27.000 DEG C


******************************************************************************



 NODE   VOLTAGE     NODE   VOLTAGE     NODE   VOLTAGE     NODE   VOLTAGE


(    A)    3.0000  (    B)   11.0000  (    C)    7.0000  (  CAL)    3.0000      

(N14615)    0.0000 (N14677)    0.0000 




    VOLTAGE SOURCE CURRENTS
    NAME         CURRENT

    V_V1         3.000E-03
    V_V2         3.000E-03
    V_CONST1     0.000E+00

    TOTAL POWER DISSIPATION   0.00E+00  WATTS



          JOB CONCLUDED

**** 07/24/23 19:08:46 ******* PSpice 17.4.0 (Nov 2018) ******* ID# 0 ********

 ** Profile: "SCHEMATIC1-test"  [ D:\Ian_Jung\workplace\PSpice\Electric_3-PSpiceFiles\SCHEMATIC1\test.sim ] 


 ****     JOB STATISTICS SUMMARY


******************************************************************************



  License check-out time            =         .96
  Total job time (using Solver 1)   =        0.00
