
**** 08/01/23 12:48:12 ******* PSpice 17.4.0 (Nov 2018) ******* ID# 0 ********

 ** Profile: "SCHEMATIC1-Time"  [ D:\Ian_Jung\workplace\PSpice\BJT_Amp_V-PSpiceFiles\SCHEMATIC1\Time.sim ] 


 ****     CIRCUIT DESCRIPTION


******************************************************************************




** Creating circuit file "Time.cir" 
** WARNING: THIS AUTOMATICALLY GENERATED FILE MAY BE OVERWRITTEN BY SUBSEQUENT SIMULATIONS

*Libraries: 
* Profile Libraries :
* Local Libraries :
* From [PSPICE NETLIST] section of C:\SPB_Data\cdssetup\OrCAD_PSpice\17.4.0\PSpice.ini file:
.lib "nom.lib" 

*Analysis directives: 
.TRAN  0 1.0m 0 0.001m 
.OPTIONS ADVCONV
.PROBE64 V(alias(*)) I(alias(*)) W(alias(*)) D(alias(*)) NOISE(alias(*)) 
.INC "..\SCHEMATIC1.net" 



**** INCLUDING SCHEMATIC1.net ****
* source BJT_AMP_V
V_V1         IN 0  
+SIN 0 0.01mV 10k 0 0 0
R_R1         IN N14632  1k TC=0,0 
R_R2         N14628 N14463  49k TC=0,0 
R_R3         N14716 N14463  5k TC=0,0 
R_R4         0 N14628  27k TC=0,0 
R_R5         0 0  1.8k TC=0,0 
R_R6         0 OUT  1k TC=0,0 
V_V2         N14463 0 5Vdc
C_C1         N14632 N14628  3u  TC=0,0 
C_C2         N14716 OUT  4u  TC=0,0 
Q_Q1         N14716 N14628 0 Q2N2222

**** RESUMING Time.cir ****
.END

**** 08/01/23 12:48:12 ******* PSpice 17.4.0 (Nov 2018) ******* ID# 0 ********

 ** Profile: "SCHEMATIC1-Time"  [ D:\Ian_Jung\workplace\PSpice\BJT_Amp_V-PSpiceFiles\SCHEMATIC1\Time.sim ] 


 ****     BJT MODEL PARAMETERS


******************************************************************************




               Q2N2222         
               NPN             
       LEVEL    1            
          IS   14.340000E-15 
          BF  255.9          
          NF    1            
         VAF   74.03         
         IKF     .2847       
         ISE   14.340000E-15 
          NE    1.307        
          BR    6.092        
          NR    1            
         ISS    0            
          RB   10            
          RE    0            
          RC    1            
         CJE   22.010000E-12 
         VJE     .75         
         MJE     .377        
         CJC    7.306000E-12 
         VJC     .75         
         MJC     .3416       
        XCJC    1            
         CJS    0            
         VJS     .75         
          TF  411.100000E-12 
         XTF    3            
         VTF    1.7          
         ITF     .6          
          TR   46.910000E-09 
         XTB    1.5          
          KF    0            
          AF    1            
          CN    2.42         
           D     .87         


**** 08/01/23 12:48:12 ******* PSpice 17.4.0 (Nov 2018) ******* ID# 0 ********

 ** Profile: "SCHEMATIC1-Time"  [ D:\Ian_Jung\workplace\PSpice\BJT_Amp_V-PSpiceFiles\SCHEMATIC1\Time.sim ] 


 ****     INITIAL TRANSIENT SOLUTION       TEMPERATURE =   27.000 DEG C


******************************************************************************



 NODE   VOLTAGE     NODE   VOLTAGE     NODE   VOLTAGE     NODE   VOLTAGE


(   IN)    0.0000  (  OUT)    0.0000  (N14463)    5.0000 (N14628)     .6551     

(N14632)    0.0000 (N14716)     .0378 




    VOLTAGE SOURCE CURRENTS
    NAME         CURRENT

    V_V1         0.000E+00
    V_V2        -1.081E-03

    TOTAL POWER DISSIPATION   5.41E-03  WATTS



          JOB CONCLUDED

**** 08/01/23 12:48:12 ******* PSpice 17.4.0 (Nov 2018) ******* ID# 0 ********

 ** Profile: "SCHEMATIC1-Time"  [ D:\Ian_Jung\workplace\PSpice\BJT_Amp_V-PSpiceFiles\SCHEMATIC1\Time.sim ] 


 ****     JOB STATISTICS SUMMARY


******************************************************************************



  License check-out time            =         .61
  Total job time (using Solver 1)   =         .05
