
**** 08/01/23 14:31:54 ******* PSpice 17.4.0 (Nov 2018) ******* ID# 0 ********

 ** Profile: "SCHEMATIC1-Common_C"  [ D:\Ian_Jung\workplace\PSpice\Common_B_and_C-PSpiceFiles\SCHEMATIC1\Common_C.sim ] 


 ****     CIRCUIT DESCRIPTION


******************************************************************************




** Creating circuit file "Common_C.cir" 
** WARNING: THIS AUTOMATICALLY GENERATED FILE MAY BE OVERWRITTEN BY SUBSEQUENT SIMULATIONS

*Libraries: 
* Profile Libraries :
* Local Libraries :
* From [PSPICE NETLIST] section of C:\SPB_Data\cdssetup\OrCAD_PSpice\17.4.0\PSpice.ini file:
.lib "nom.lib" 

*Analysis directives: 
.TRAN  0 1m 0 0.003m 
.OPTIONS ADVCONV
.PROBE64 V(alias(*)) I(alias(*)) W(alias(*)) D(alias(*)) NOISE(alias(*)) 
.INC "..\SCHEMATIC1.net" 



**** INCLUDING SCHEMATIC1.net ****
* source COMMON_B_AND_C
R_R1         IN N16616  1k TC=0,0 
C_C2         N16654 V0  4u  TC=0,0 
Q_Q1         N16424 N16494 N16654 Q2N2222
C_C1         N16616 N16494  3u  TC=0,0 
R_R2         N16494 N16424  22k TC=0,0 
R_R6         0 V0  3k TC=0,0 
R_R5         0 N16654  1.8k TC=0,0 
R_R4         0 N16494  22k TC=0,0 
V_V1         IN 0  
+SIN 0 1mV 10k 0 0 0
V_V2         N16424 0 12Vdc

**** RESUMING Common_C.cir ****
.END

**** 08/01/23 14:31:54 ******* PSpice 17.4.0 (Nov 2018) ******* ID# 0 ********

 ** Profile: "SCHEMATIC1-Common_C"  [ D:\Ian_Jung\workplace\PSpice\Common_B_and_C-PSpiceFiles\SCHEMATIC1\Common_C.sim ] 


 ****     BJT MODEL PARAMETERS


******************************************************************************




               Q2N2222         
               NPN             
       LEVEL    1            
          IS   14.340000E-15 
          BF  255.9          
          NF    1            
         VAF   74.03         
         IKF     .2847       
         ISE   14.340000E-15 
          NE    1.307        
          BR    6.092        
          NR    1            
         ISS    0            
          RB   10            
          RE    0            
          RC    1            
         CJE   22.010000E-12 
         VJE     .75         
         MJE     .377        
         CJC    7.306000E-12 
         VJC     .75         
         MJC     .3416       
        XCJC    1            
         CJS    0            
         VJS     .75         
          TF  411.100000E-12 
         XTF    3            
         VTF    1.7          
         ITF     .6          
          TR   46.910000E-09 
         XTB    1.5          
          KF    0            
          AF    1            
          CN    2.42         
           D     .87         


**** 08/01/23 14:31:54 ******* PSpice 17.4.0 (Nov 2018) ******* ID# 0 ********

 ** Profile: "SCHEMATIC1-Common_C"  [ D:\Ian_Jung\workplace\PSpice\Common_B_and_C-PSpiceFiles\SCHEMATIC1\Common_C.sim ] 


 ****     INITIAL TRANSIENT SOLUTION       TEMPERATURE =   27.000 DEG C


******************************************************************************



 NODE   VOLTAGE     NODE   VOLTAGE     NODE   VOLTAGE     NODE   VOLTAGE


(   IN)    0.0000  (   V0)    0.0000  (N16424)   12.0000 (N16494)    5.8203     

(N16616)    0.0000 (N16654)    5.1492 




    VOLTAGE SOURCE CURRENTS
    NAME         CURRENT

    V_V1         0.000E+00
    V_V2        -3.125E-03

    TOTAL POWER DISSIPATION   3.75E-02  WATTS



          JOB CONCLUDED

**** 08/01/23 14:31:54 ******* PSpice 17.4.0 (Nov 2018) ******* ID# 0 ********

 ** Profile: "SCHEMATIC1-Common_C"  [ D:\Ian_Jung\workplace\PSpice\Common_B_and_C-PSpiceFiles\SCHEMATIC1\Common_C.sim ] 


 ****     JOB STATISTICS SUMMARY


******************************************************************************



  Total job time (using Solver 1)   =         .03
