
**** 08/01/23 15:07:46 ******* PSpice 17.4.0 (Nov 2018) ******* ID# 0 ********

 ** Profile: "SCHEMATIC1-Common_B"  [ D:\Ian_Jung\workplace\PSpice\Common_B-PSpiceFiles\SCHEMATIC1\Common_B.sim ] 


 ****     CIRCUIT DESCRIPTION


******************************************************************************




** Creating circuit file "Common_B.cir" 
** WARNING: THIS AUTOMATICALLY GENERATED FILE MAY BE OVERWRITTEN BY SUBSEQUENT SIMULATIONS

*Libraries: 
* Profile Libraries :
* Local Libraries :
* From [PSPICE NETLIST] section of C:\SPB_Data\cdssetup\OrCAD_PSpice\17.4.0\PSpice.ini file:
.lib "nom.lib" 

*Analysis directives: 
.TRAN  0 1m 0 0.005m 
.OPTIONS ADVCONV
.PROBE64 V(alias(*)) I(alias(*)) W(alias(*)) D(alias(*)) NOISE(alias(*)) 
.INC "..\SCHEMATIC1.net" 



**** INCLUDING SCHEMATIC1.net ****
* source COMMON_B
Q_Q1         N18738 N18326 N18424 Q2N2222
R_R2         N18276 N18326  56k TC=0,0 
R_R4         0 N18326  12k TC=0,0 
C_C1         0 N18326  75u  TC=0,0 
V_V2         N18276 0 10Vdc
R_R5         0 N18424  1k TC=0,0 
R_R7         N18276 N18738  2.2k TC=0,0 
R_R6         0 V0  0.1k TC=0,0 
C_C2         N18738 V0  10u  TC=0,0 
C_C3         N18424 N19649  10u  TC=0,0 
I_I2         N19649 0 DC 0Adc AC 0Aac
+SIN 0 100u 10k 0 0 0
R_R8         0 N19649  99999999M TC=0,0 

**** RESUMING Common_B.cir ****
.END

**** 08/01/23 15:07:46 ******* PSpice 17.4.0 (Nov 2018) ******* ID# 0 ********

 ** Profile: "SCHEMATIC1-Common_B"  [ D:\Ian_Jung\workplace\PSpice\Common_B-PSpiceFiles\SCHEMATIC1\Common_B.sim ] 


 ****     BJT MODEL PARAMETERS


******************************************************************************




               Q2N2222         
               NPN             
       LEVEL    1            
          IS   14.340000E-15 
          BF  255.9          
          NF    1            
         VAF   74.03         
         IKF     .2847       
         ISE   14.340000E-15 
          NE    1.307        
          BR    6.092        
          NR    1            
         ISS    0            
          RB   10            
          RE    0            
          RC    1            
         CJE   22.010000E-12 
         VJE     .75         
         MJE     .377        
         CJC    7.306000E-12 
         VJC     .75         
         MJC     .3416       
        XCJC    1            
         CJS    0            
         VJS     .75         
          TF  411.100000E-12 
         XTF    3            
         VTF    1.7          
         ITF     .6          
          TR   46.910000E-09 
         XTB    1.5          
          KF    0            
          AF    1            
          CN    2.42         
           D     .87         


**** 08/01/23 15:07:46 ******* PSpice 17.4.0 (Nov 2018) ******* ID# 0 ********

 ** Profile: "SCHEMATIC1-Common_B"  [ D:\Ian_Jung\workplace\PSpice\Common_B-PSpiceFiles\SCHEMATIC1\Common_B.sim ] 


 ****     INITIAL TRANSIENT SOLUTION       TEMPERATURE =   27.000 DEG C


******************************************************************************



 NODE   VOLTAGE     NODE   VOLTAGE     NODE   VOLTAGE     NODE   VOLTAGE


(   V0)    0.0000  (N18276)   10.0000 (N18326)    1.6997 (N18424)    1.0546     

(N18738)    7.6945 (N19649)    0.0000 




    VOLTAGE SOURCE CURRENTS
    NAME         CURRENT

    V_V2        -1.196E-03

    TOTAL POWER DISSIPATION   1.20E-02  WATTS



          JOB CONCLUDED

**** 08/01/23 15:07:46 ******* PSpice 17.4.0 (Nov 2018) ******* ID# 0 ********

 ** Profile: "SCHEMATIC1-Common_B"  [ D:\Ian_Jung\workplace\PSpice\Common_B-PSpiceFiles\SCHEMATIC1\Common_B.sim ] 


 ****     JOB STATISTICS SUMMARY


******************************************************************************



  License check-out time            =        1.84
  Total job time (using Solver 1)   =         .03
