
**** 08/22/23 14:57:38 ******* PSpice 17.4.0 (Nov 2018) ******* ID# 0 ********

 ** Profile: "SCHEMATIC1-Tran"  [ D:\Ian_Jung\workplace\PSpice\Colpitts_Oscillator-PSpiceFiles\SCHEMATIC1\Tran.sim ] 


 ****     CIRCUIT DESCRIPTION


******************************************************************************




** Creating circuit file "Tran.cir" 
** WARNING: THIS AUTOMATICALLY GENERATED FILE MAY BE OVERWRITTEN BY SUBSEQUENT SIMULATIONS

*Libraries: 
* Profile Libraries :
* Local Libraries :
* From [PSPICE NETLIST] section of C:\SPB_Data\cdssetup\OrCAD_PSpice\17.4.0\PSpice.ini file:
.lib "nom.lib" 

*Analysis directives: 
.TRAN  0 10.1m 10m 1u 
.OPTIONS ADVCONV
.PROBE64 V(alias(*)) I(alias(*)) W(alias(*)) D(alias(*)) NOISE(alias(*)) 
.INC "..\SCHEMATIC1.net" 



**** INCLUDING SCHEMATIC1.net ****
* source COLPITTS_OSCILLATOR
R_R2         N15061 N15149  49k TC=0,0 
C_C2         N15149 N15890  1u  TC=0,0 
V_V1         N15061 0 5Vdc
C_C1         OUT N15121  4u  TC=0,0 
C_C3         0 N15215  75u  TC=0,0 
R_R3         N15149 0  27k TC=0,0 
R_R1         N15121 N15061  5k TC=0,0 
R_R4         N15215 0  1.8k TC=0,0 
C_C4         N15890 0  0.1u  TC=0,0 
C_C5         0 N15121  0.1u  TC=0,0 
L_L1         N15890 N15121  50uH  
Q_Q2         N15121 N15149 N15215 Q2N2222
R_R5         0 OUT  10k TC=0,0 

**** RESUMING Tran.cir ****
.END

**** 08/22/23 14:57:38 ******* PSpice 17.4.0 (Nov 2018) ******* ID# 0 ********

 ** Profile: "SCHEMATIC1-Tran"  [ D:\Ian_Jung\workplace\PSpice\Colpitts_Oscillator-PSpiceFiles\SCHEMATIC1\Tran.sim ] 


 ****     BJT MODEL PARAMETERS


******************************************************************************




               Q2N2222         
               NPN             
       LEVEL    1            
          IS   14.340000E-15 
          BF  255.9          
          NF    1            
         VAF   74.03         
         IKF     .2847       
         ISE   14.340000E-15 
          NE    1.307        
          BR    6.092        
          NR    1            
         ISS    0            
          RB   10            
          RE    0            
          RC    1            
         CJE   22.010000E-12 
         VJE     .75         
         MJE     .377        
         CJC    7.306000E-12 
         VJC     .75         
         MJC     .3416       
        XCJC    1            
         CJS    0            
         VJS     .75         
          TF  411.100000E-12 
         XTF    3            
         VTF    1.7          
         ITF     .6          
          TR   46.910000E-09 
         XTB    1.5          
          KF    0            
          AF    1            
          CN    2.42         
           D     .87         


**** 08/22/23 14:57:38 ******* PSpice 17.4.0 (Nov 2018) ******* ID# 0 ********

 ** Profile: "SCHEMATIC1-Tran"  [ D:\Ian_Jung\workplace\PSpice\Colpitts_Oscillator-PSpiceFiles\SCHEMATIC1\Tran.sim ] 


 ****     INITIAL TRANSIENT SOLUTION       TEMPERATURE =   27.000 DEG C


******************************************************************************



 NODE   VOLTAGE     NODE   VOLTAGE     NODE   VOLTAGE     NODE   VOLTAGE


(  OUT)    0.0000  (N15061)    5.0000 (N15121)    2.0457 (N15149)    1.7033     

(N15215)    1.0711 (N15890)    2.0457 




    VOLTAGE SOURCE CURRENTS
    NAME         CURRENT

    V_V1        -6.581E-04

    TOTAL POWER DISSIPATION   3.29E-03  WATTS



          JOB CONCLUDED

**** 08/22/23 14:57:38 ******* PSpice 17.4.0 (Nov 2018) ******* ID# 0 ********

 ** Profile: "SCHEMATIC1-Tran"  [ D:\Ian_Jung\workplace\PSpice\Colpitts_Oscillator-PSpiceFiles\SCHEMATIC1\Tran.sim ] 


 ****     JOB STATISTICS SUMMARY


******************************************************************************



  License check-out time            =        2.30
  Total job time (using Solver 1)   =         .16
