
**** 07/31/23 14:33:16 ******* PSpice 17.4.0 (Nov 2018) ******* ID# 0 ********

 ** Profile: "SCHEMATIC1-cliper"  [ D:\Ian_Jung\workplace\PSpice\Diode_cliper-PSpiceFiles\SCHEMATIC1\cliper.sim ] 


 ****     CIRCUIT DESCRIPTION


******************************************************************************




** Creating circuit file "cliper.cir" 
** WARNING: THIS AUTOMATICALLY GENERATED FILE MAY BE OVERWRITTEN BY SUBSEQUENT SIMULATIONS

*Libraries: 
* Profile Libraries :
* Local Libraries :
* From [PSPICE NETLIST] section of C:\SPB_Data\cdssetup\OrCAD_PSpice\17.4.0\PSpice.ini file:
.lib "nom.lib" 

*Analysis directives: 
.TRAN  0 40m 0 
.OPTIONS ADVCONV
.PROBE64 V(alias(*)) I(alias(*)) W(alias(*)) D(alias(*)) NOISE(alias(*)) 
.INC "..\SCHEMATIC1.net" 



**** INCLUDING SCHEMATIC1.net ****
* source DIODE_CLIPER
R_R1         0 N14378  2.2k TC=0,0 
D_D2         N14371 N14378 D1N4148 
V_V1         N14371 0 8Vdc

**** RESUMING cliper.cir ****
.END

**** 07/31/23 14:33:16 ******* PSpice 17.4.0 (Nov 2018) ******* ID# 0 ********

 ** Profile: "SCHEMATIC1-cliper"  [ D:\Ian_Jung\workplace\PSpice\Diode_cliper-PSpiceFiles\SCHEMATIC1\cliper.sim ] 


 ****     Diode MODEL PARAMETERS


******************************************************************************




               D1N4148         
          IS    2.682000E-09 
           N    1.836        
         ISR    1.565000E-09 
         IKF     .04417      
          BV  100            
         IBV  100.000000E-06 
          RS     .5664       
          TT   11.540000E-09 
         CJO    4.000000E-12 
          VJ     .5          
           M     .3333       


**** 07/31/23 14:33:16 ******* PSpice 17.4.0 (Nov 2018) ******* ID# 0 ********

 ** Profile: "SCHEMATIC1-cliper"  [ D:\Ian_Jung\workplace\PSpice\Diode_cliper-PSpiceFiles\SCHEMATIC1\cliper.sim ] 


 ****     INITIAL TRANSIENT SOLUTION       TEMPERATURE =   27.000 DEG C


******************************************************************************



 NODE   VOLTAGE     NODE   VOLTAGE     NODE   VOLTAGE     NODE   VOLTAGE


(N14371)    8.0000 (N14378)    7.3361 




    VOLTAGE SOURCE CURRENTS
    NAME         CURRENT

    V_V1        -3.335E-03

    TOTAL POWER DISSIPATION   2.67E-02  WATTS



          JOB CONCLUDED

**** 07/31/23 14:33:16 ******* PSpice 17.4.0 (Nov 2018) ******* ID# 0 ********

 ** Profile: "SCHEMATIC1-cliper"  [ D:\Ian_Jung\workplace\PSpice\Diode_cliper-PSpiceFiles\SCHEMATIC1\cliper.sim ] 


 ****     JOB STATISTICS SUMMARY


******************************************************************************



  License check-out time            =        1.11
  Total job time (using Solver 1)   =         .03
