
**** 08/29/23 15:05:21 ******* PSpice 17.4.0 (Nov 2018) ******* ID# 0 ********

 ** Profile: "SCHEMATIC1-Tran"  [ D:\Ian_Jung\workplace\PSpice\Buck_2-PSpiceFiles\SCHEMATIC1\Tran.sim ] 


 ****     CIRCUIT DESCRIPTION


******************************************************************************




** Creating circuit file "Tran.cir" 
** WARNING: THIS AUTOMATICALLY GENERATED FILE MAY BE OVERWRITTEN BY SUBSEQUENT SIMULATIONS

*Libraries: 
* Profile Libraries :
* Local Libraries :
* From [PSPICE NETLIST] section of C:\SPB_Data\cdssetup\OrCAD_PSpice\17.4.0\PSpice.ini file:
.lib "nom.lib" 

*Analysis directives: 
.TRAN  0 1m 0 
.OPTIONS ADVCONV
.PROBE64 V(alias(*)) I(alias(*)) W(alias(*)) D(alias(*)) NOISE(alias(*)) 
.INC "..\SCHEMATIC1.net" 



**** INCLUDING SCHEMATIC1.net ****
* source BUCK_2
I_I2         BOOST 0 DC 0.5Adc  
R_R1         PULSE N15569  100 TC=0,0 
V_V1         N15499 0 5Vdc
C_C1         N20881 N20877  {C}  TC=0,0 
L_L1         N15499 N15799  {L}  
I_I1         BUCK 0 DC 0.5Adc  
X_M1         N15517 N15569 N15499 Si2301BDS
R_R2         PULSE N158411  100 TC=0,0 
L_L2         N15517 BUCK  {L}  
X_M2         N15799 N158411 0 SI2302ADS
R_R4         N17031 N17461  30k TC=0,0 
R_R5         N17058 N17031  150k TC=0,0 
C_C4         0 N17058  10p  TC=0,0 
V_V2         N17461 0 5Vdc
C_C5         0 N18723  0.1u  TC=0,0 
X_U4         0 N17058 PULSE N17461 N18723 N17058 N17031 N17461 555B
D_D1         N15799 BOOST Dbreak 
D_D3         0 N15517 Dbreak 
L_L4         N20877 BUCK  1nH  
R_R6         0 N20881  1m TC=0,0 
C_C6         N21049 N21029  {C}  TC=0,0 
R_R7         0 N21049  1m TC=0,0 
L_L5         N21029 BOOST  1nH  
.PARAM  l=6.8uh c=10uf duty=0.5

**** RESUMING Tran.cir ****
.END

**** 08/29/23 15:05:21 ******* PSpice 17.4.0 (Nov 2018) ******* ID# 0 ********

 ** Profile: "SCHEMATIC1-Tran"  [ D:\Ian_Jung\workplace\PSpice\Buck_2-PSpiceFiles\SCHEMATIC1\Tran.sim ] 


 ****     Diode MODEL PARAMETERS


******************************************************************************




               Dbreak          X_M1.DBD        X_M2.DBD        
          IS   10.000000E-15    1.000000E-12    1.000000E-12 
          BV                   20.5            20.3          
          RS     .1                              .1          
          TT                   50.000000E-09   50.000000E-09 
         CJO  100.000000E-15   40.000000E-12   90.000000E-12 
          VJ                     .38             .38         
           M                     .22             .2          


**** 08/29/23 15:05:21 ******* PSpice 17.4.0 (Nov 2018) ******* ID# 0 ********

 ** Profile: "SCHEMATIC1-Tran"  [ D:\Ian_Jung\workplace\PSpice\Buck_2-PSpiceFiles\SCHEMATIC1\Tran.sim ] 


 ****     BJT MODEL PARAMETERS


******************************************************************************




               X_U4.qnpn555    X_U4.qpnp555    
               NPN             PNP             
       LEVEL    1               1            
          IS   14.340000E-15  650.600000E-18 
          BF   65.62           70.35         
          NF    1               1            
         VAF   74.03          115.7          
         IKF     .02             .02         
         ISE   19.480000E-15  180.500000E-15 
          NE    1.208           1.829        
          BR    9.715           4.146        
          NR    1               1            
         ISS    0               0            
          RB   10              10            
          RE    0               0            
          RC    1                .715        
         CJE   40.000000E-12   40.000000E-12 
         VJE     .75             .75         
         MJE     .377            .3357       
         CJC   40.000000E-12   40.000000E-12 
         VJC     .75             .75         
         MJC     .3416           .5383       
        XCJC    1               1            
         CJS    0               0            
         VJS     .75             .75         
          TF    1.000000E-09    1.000000E-09 
         XTF    3               1.7          
         VTF    1.7             5            
         ITF     .6              .65         
          TR   58.980000E-09  119.900000E-09 
         XTB    1.5             1.5          
          KF    0               0            
          AF    1               1            
          CN    2.42            2.2          
           D     .87             .52         


**** 08/29/23 15:05:21 ******* PSpice 17.4.0 (Nov 2018) ******* ID# 0 ********

 ** Profile: "SCHEMATIC1-Tran"  [ D:\Ian_Jung\workplace\PSpice\Buck_2-PSpiceFiles\SCHEMATIC1\Tran.sim ] 


 ****     MOSFET MODEL PARAMETERS


******************************************************************************




               X_M1.PMOS       X_M1.NMOS       X_M2.NMOS       X_M2.PMOS       
               PMOS            NMOS            NMOS            PMOS            
       LEVEL    3               3               3               3            
         TPG   -1              -1                              -1            
           L  100.000000E-06  100.000000E-06  100.000000E-06  100.000000E-06 
           W  100.000000E-06  100.000000E-06  100.000000E-06  100.000000E-06 
         VTO   -1.091295        1.774342        1.903763       -2.810764     
          KP   20.000000E-06  121.875700E-06   23.000000E-06   69.062880E-06 
       GAMMA     .237314         .896963        2.210366        2.002197     
         PHI     .676983         .814542         .849088         .838855     
      LAMBDA    0               0               0               0            
          RS     .04                             .022                        
          IS    0              10.000000E-15    0              10.000000E-15 
          JS    0               0               0               0            
          PB     .8              .8              .8              .8          
        PBSW     .8              .8              .8              .8          
          CJ  269.472400E-06    1.018510E-03    1.422272E-03    1.288324E-03 
        CJSW    0               0               0               0            
        CGSO    0               0               0               0            
        CGDO    0               0               0               0            
        CGBO    0               0               0               0            
        NSUB    7.000000E+15  100.000000E+15  195.000000E+15  160.000000E+15 
         NFS  800.000000E+09                  800.000000E+09                 
         TOX   17.000000E-09   17.000000E-09   30.000000E-09   30.000000E-09 
          XJ  500.000000E-09    0             500.000000E-09    0            
          UO  400                             650                            
       UCRIT   10.000000E+03   10.000000E+03   10.000000E+03   10.000000E+03 
       DELTA     .1                              .1                          
         ETA  100.000000E-06                  100.000000E-06                 
       KAPPA    4.000000E-03                     .05                         
      DIOMOD    1               1               1               1            
         VFB    0               0               0               0            
        LETA    0               0               0               0            
        WETA    0               0               0               0            
          U0    0               0               0               0            
        TEMP    0               0               0               0            
         VDD    5               5               5               5            
       XPART    0               0               0               0            


**** 08/29/23 15:05:21 ******* PSpice 17.4.0 (Nov 2018) ******* ID# 0 ********

 ** Profile: "SCHEMATIC1-Tran"  [ D:\Ian_Jung\workplace\PSpice\Buck_2-PSpiceFiles\SCHEMATIC1\Tran.sim ] 


 ****     Resistor MODEL PARAMETERS


******************************************************************************




               X_M1.RTEMP      X_M2.RTEMP      
           R    1               1            
         TC1    6.500000E-03     .01         
         TC2    5.500000E-06    5.500000E-06 


**** 08/29/23 15:05:21 ******* PSpice 17.4.0 (Nov 2018) ******* ID# 0 ********

 ** Profile: "SCHEMATIC1-Tran"  [ D:\Ian_Jung\workplace\PSpice\Buck_2-PSpiceFiles\SCHEMATIC1\Tran.sim ] 


 ****     INITIAL TRANSIENT SOLUTION       TEMPERATURE =   27.000 DEG C


******************************************************************************



 NODE   VOLTAGE     NODE   VOLTAGE     NODE   VOLTAGE     NODE   VOLTAGE


( BUCK)    4.9293  (BOOST)    4.1342  (PULSE)    3.0815  (N15499)    5.0000     

(N15517)    4.9293 (N15569)    3.0815 (N15799)    5.0000 (N17031)    1.6585     

(N17058)    1.6613 (N17461)    5.0000 (N18723)    3.3319 (N20877)    4.9293     

(N20881)    0.0000 (N21029)    4.1342 (N21049)    0.0000 (X_M1.3)    4.9468     

(X_M2.3)    4.8249 (X_U4.9)    4.2977 (N158411)    3.0815                       

(X_U4.10)    1.2082                   (X_U4.11)    3.8748                       

(X_U4.12)     .6126                   (X_U4.13)     .6226                       

(X_U4.14)    1.2349                   (X_U4.15)     .0026                       

(X_U4.16)     .6028                   (X_U4.17)    4.3139                       

(X_U4.18)    4.8319                   (X_U4.19)    2.8206                       

(X_U4.20)    4.9469                   (X_U4.21)     .5888                       

(X_U4.22)     .5473                   (X_U4.23)    2.1887                       

(X_U4.24)    2.1911                   (X_U4.25)    1.6660                       

(X_U4.26)     .5893                   (X_U4.27)     .5888                       

(X_U4.28)    3.3045                   (X_U4.29)     .5890                       

(X_U4.30)    2.8119                   (X_U4.31)    2.3608                       

(X_U4.32)    2.2063                   




    VOLTAGE SOURCE CURRENTS
    NAME         CURRENT

    V_V1        -2.045E+01
    V_V2        -1.988E-03

    TOTAL POWER DISSIPATION   1.02E+02  WATTS



          JOB CONCLUDED

**** 08/29/23 15:05:21 ******* PSpice 17.4.0 (Nov 2018) ******* ID# 0 ********

 ** Profile: "SCHEMATIC1-Tran"  [ D:\Ian_Jung\workplace\PSpice\Buck_2-PSpiceFiles\SCHEMATIC1\Tran.sim ] 


 ****     JOB STATISTICS SUMMARY


******************************************************************************



  License check-out time            =      149.75
  Total job time (using Solver 1)   =         .06
