
**** 08/01/23 10:50:27 ******* PSpice 17.4.0 (Nov 2018) ******* ID# 0 ********

 ** Profile: "SCHEMATIC1-AC"  [ D:\Ian_Jung\workplace\PSpice\NPN_1-PSpiceFiles\SCHEMATIC1\AC.sim ] 


 ****     CIRCUIT DESCRIPTION


******************************************************************************




** Creating circuit file "AC.cir" 
** WARNING: THIS AUTOMATICALLY GENERATED FILE MAY BE OVERWRITTEN BY SUBSEQUENT SIMULATIONS

*Libraries: 
* Profile Libraries :
* Local Libraries :
* From [PSPICE NETLIST] section of C:\SPB_Data\cdssetup\OrCAD_PSpice\17.4.0\PSpice.ini file:
.lib "nom.lib" 

*Analysis directives: 
.AC DEC 100 1 10meg
.NOISE V([OUT]) V_Vsig 10
.OPTIONS ADVCONV
.PROBE64 V(alias(*)) I(alias(*)) W(alias(*)) D(alias(*)) NOISE(alias(*)) 
.INC "..\SCHEMATIC1.net" 



**** INCLUDING SCHEMATIC1.net ****
* source NPN_1
V_Vsig         IN 0  AC 1
+SIN 0 1mV 10k 0 0 0
R_R1         IN N14565  1k TC=0,0 
R_RB1         N14569 N14624  49k TC=0,0 
R_RB2         0 N14569  27k TC=0,0 
R_RC         N14620 N14624  5k TC=0,0 
R_RE         0 0  1.8k TC=0,0 
R_RL         0 OUT  1k TC=0,0 
C_C1         N14565 N14569  3u  TC=0,0 
C_CC         N14620 OUT  4u  TC=0,0 
V_VDC         N14624 0 5V
Q_Q1         N14620 N14569 0 Q2N2222

**** RESUMING AC.cir ****
.END

**** 08/01/23 10:50:27 ******* PSpice 17.4.0 (Nov 2018) ******* ID# 0 ********

 ** Profile: "SCHEMATIC1-AC"  [ D:\Ian_Jung\workplace\PSpice\NPN_1-PSpiceFiles\SCHEMATIC1\AC.sim ] 


 ****     BJT MODEL PARAMETERS


******************************************************************************




               Q2N2222         
               NPN             
       LEVEL    1            
          IS   14.340000E-15 
          BF  255.9          
          NF    1            
         VAF   74.03         
         IKF     .2847       
         ISE   14.340000E-15 
          NE    1.307        
          BR    6.092        
          NR    1            
         ISS    0            
          RB   10            
          RE    0            
          RC    1            
         CJE   22.010000E-12 
         VJE     .75         
         MJE     .377        
         CJC    7.306000E-12 
         VJC     .75         
         MJC     .3416       
        XCJC    1            
         CJS    0            
         VJS     .75         
          TF  411.100000E-12 
         XTF    3            
         VTF    1.7          
         ITF     .6          
          TR   46.910000E-09 
         XTB    1.5          
          KF    0            
          AF    1            
          CN    2.42         
           D     .87         


**** 08/01/23 10:50:27 ******* PSpice 17.4.0 (Nov 2018) ******* ID# 0 ********

 ** Profile: "SCHEMATIC1-AC"  [ D:\Ian_Jung\workplace\PSpice\NPN_1-PSpiceFiles\SCHEMATIC1\AC.sim ] 


 ****     SMALL SIGNAL BIAS SOLUTION       TEMPERATURE =   27.000 DEG C


******************************************************************************



 NODE   VOLTAGE     NODE   VOLTAGE     NODE   VOLTAGE     NODE   VOLTAGE


(   IN)    0.0000  (  OUT)    0.0000  (N14565)    0.0000 (N14569)     .6551     

(N14620)     .0378 (N14624)    5.0000 




    VOLTAGE SOURCE CURRENTS
    NAME         CURRENT

    V_Vsig       0.000E+00
    V_VDC       -1.081E-03

    TOTAL POWER DISSIPATION   5.41E-03  WATTS


**** 08/01/23 10:50:27 ******* PSpice 17.4.0 (Nov 2018) ******* ID# 0 ********

 ** Profile: "SCHEMATIC1-AC"  [ D:\Ian_Jung\workplace\PSpice\NPN_1-PSpiceFiles\SCHEMATIC1\AC.sim ] 


 ****     NOISE ANALYSIS                   TEMPERATURE =   27.000 DEG C


******************************************************************************



     FREQUENCY =  1.000E+00 HZ




 **** TRANSISTOR SQUARED NOISE VOLTAGES (SQ V/HZ)




          Q_Q1       

 RB       3.919E-26

 RC       1.037E-23

 RE       0.000E+00

 IBSN     1.322E-21

 IC       8.845E-23

 IBFN     0.000E+00

 TOTAL    1.421E-21



 **** RESISTOR SQUARED NOISE VOLTAGES (SQ V/HZ)




          R_R1       R_RB1      R_RB2      R_RC       R_RE       R_RL       

 TOTAL    3.766E-25  2.164E-23  3.927E-23  1.012E-24  0.000E+00  1.656E-17





 **** TOTAL OUTPUT NOISE VOLTAGE         =  1.657E-17 SQ V/HZ

                                         =  4.070E-09 V/RT HZ

      TRANSFER FUNCTION VALUE:

        V(OUT)/V_Vsig                    =  1.507E-04

      EQUIVALENT INPUT NOISE AT V_Vsig =  2.700E-05 V/RT HZ

**** 08/01/23 10:50:27 ******* PSpice 17.4.0 (Nov 2018) ******* ID# 0 ********

 ** Profile: "SCHEMATIC1-AC"  [ D:\Ian_Jung\workplace\PSpice\NPN_1-PSpiceFiles\SCHEMATIC1\AC.sim ] 


 ****     NOISE ANALYSIS                   TEMPERATURE =   27.000 DEG C


******************************************************************************



     FREQUENCY =  1.259E+00 HZ




 **** TRANSISTOR SQUARED NOISE VOLTAGES (SQ V/HZ)




          Q_Q1       

 RB       6.598E-26

 RC       1.643E-23

 RE       0.000E+00

 IBSN     2.094E-21

 IC       1.402E-22

 IBFN     0.000E+00

 TOTAL    2.251E-21



 **** RESISTOR SQUARED NOISE VOLTAGES (SQ V/HZ)




          R_R1       R_RB1      R_RB2      R_RC       R_RE       R_RL       

 TOTAL    9.454E-25  3.428E-23  6.222E-23  1.603E-24  0.000E+00  1.656E-17





 **** TOTAL OUTPUT NOISE VOLTAGE         =  1.656E-17 SQ V/HZ

                                         =  4.070E-09 V/RT HZ

      TRANSFER FUNCTION VALUE:

        V(OUT)/V_Vsig                    =  2.388E-04

      EQUIVALENT INPUT NOISE AT V_Vsig =  1.704E-05 V/RT HZ

**** 08/01/23 10:50:27 ******* PSpice 17.4.0 (Nov 2018) ******* ID# 0 ********

 ** Profile: "SCHEMATIC1-AC"  [ D:\Ian_Jung\workplace\PSpice\NPN_1-PSpiceFiles\SCHEMATIC1\AC.sim ] 


 ****     NOISE ANALYSIS                   TEMPERATURE =   27.000 DEG C


******************************************************************************



     FREQUENCY =  1.585E+00 HZ




 **** TRANSISTOR SQUARED NOISE VOLTAGES (SQ V/HZ)




          Q_Q1       

 RB       1.142E-25

 RC       2.603E-23

 RE       0.000E+00

 IBSN     3.317E-21

 IC       2.220E-22

 IBFN     0.000E+00

 TOTAL    3.565E-21



 **** RESISTOR SQUARED NOISE VOLTAGES (SQ V/HZ)




          R_R1       R_RB1      R_RB2      R_RC       R_RE       R_RL       

 TOTAL    2.372E-24  5.430E-23  9.854E-23  2.539E-24  0.000E+00  1.655E-17





 **** TOTAL OUTPUT NOISE VOLTAGE         =  1.655E-17 SQ V/HZ

                                         =  4.068E-09 V/RT HZ

      TRANSFER FUNCTION VALUE:

        V(OUT)/V_Vsig                    =  3.783E-04

      EQUIVALENT INPUT NOISE AT V_Vsig =  1.075E-05 V/RT HZ

**** 08/01/23 10:50:27 ******* PSpice 17.4.0 (Nov 2018) ******* ID# 0 ********

 ** Profile: "SCHEMATIC1-AC"  [ D:\Ian_Jung\workplace\PSpice\NPN_1-PSpiceFiles\SCHEMATIC1\AC.sim ] 


 ****     NOISE ANALYSIS                   TEMPERATURE =   27.000 DEG C


******************************************************************************



     FREQUENCY =  1.995E+00 HZ




 **** TRANSISTOR SQUARED NOISE VOLTAGES (SQ V/HZ)




          Q_Q1       

 RB       2.053E-25

 RC       4.121E-23

 RE       0.000E+00

 IBSN     5.251E-21

 IC       3.517E-22

 IBFN     0.000E+00

 TOTAL    5.644E-21



 **** RESISTOR SQUARED NOISE VOLTAGES (SQ V/HZ)




          R_R1       R_RB1      R_RB2      R_RC       R_RE       R_RL       

 TOTAL    5.949E-24  8.596E-23  1.560E-22  4.022E-24  0.000E+00  1.653E-17





 **** TOTAL OUTPUT NOISE VOLTAGE         =  1.654E-17 SQ V/HZ

                                         =  4.067E-09 V/RT HZ

      TRANSFER FUNCTION VALUE:

        V(OUT)/V_Vsig                    =  5.991E-04

      EQUIVALENT INPUT NOISE AT V_Vsig =  6.788E-06 V/RT HZ

**** 08/01/23 10:50:27 ******* PSpice 17.4.0 (Nov 2018) ******* ID# 0 ********

 ** Profile: "SCHEMATIC1-AC"  [ D:\Ian_Jung\workplace\PSpice\NPN_1-PSpiceFiles\SCHEMATIC1\AC.sim ] 


 ****     NOISE ANALYSIS                   TEMPERATURE =   27.000 DEG C


******************************************************************************



     FREQUENCY =  2.512E+00 HZ




 **** TRANSISTOR SQUARED NOISE VOLTAGES (SQ V/HZ)




          Q_Q1       

 RB       3.861E-25

 RC       6.521E-23

 RE       0.000E+00

 IBSN     8.307E-21

 IC       5.569E-22

 IBFN     0.000E+00

 TOTAL    8.930E-21



 **** RESISTOR SQUARED NOISE VOLTAGES (SQ V/HZ)




          R_R1       R_RB1      R_RB2      R_RC       R_RE       R_RL       

 TOTAL    1.491E-23  1.360E-22  2.468E-22  6.369E-24  0.000E+00  1.651E-17





 **** TOTAL OUTPUT NOISE VOLTAGE         =  1.652E-17 SQ V/HZ

                                         =  4.064E-09 V/RT HZ

      TRANSFER FUNCTION VALUE:

        V(OUT)/V_Vsig                    =  9.483E-04

      EQUIVALENT INPUT NOISE AT V_Vsig =  4.286E-06 V/RT HZ

**** 08/01/23 10:50:27 ******* PSpice 17.4.0 (Nov 2018) ******* ID# 0 ********

 ** Profile: "SCHEMATIC1-AC"  [ D:\Ian_Jung\workplace\PSpice\NPN_1-PSpiceFiles\SCHEMATIC1\AC.sim ] 


 ****     NOISE ANALYSIS                   TEMPERATURE =   27.000 DEG C


******************************************************************************



     FREQUENCY =  3.162E+00 HZ




 **** TRANSISTOR SQUARED NOISE VOLTAGES (SQ V/HZ)




          Q_Q1       

 RB       7.633E-25

 RC       1.031E-22

 RE       0.000E+00

 IBSN     1.313E-20

 IC       8.813E-22

 IBFN     0.000E+00

 TOTAL    1.412E-20



 **** RESISTOR SQUARED NOISE VOLTAGES (SQ V/HZ)




          R_R1       R_RB1      R_RB2      R_RC       R_RE       R_RL       

 TOTAL    3.729E-23  2.149E-22  3.901E-22  1.008E-23  0.000E+00  1.647E-17





 **** TOTAL OUTPUT NOISE VOLTAGE         =  1.648E-17 SQ V/HZ

                                         =  4.060E-09 V/RT HZ

      TRANSFER FUNCTION VALUE:

        V(OUT)/V_Vsig                    =  1.500E-03

      EQUIVALENT INPUT NOISE AT V_Vsig =  2.707E-06 V/RT HZ

**** 08/01/23 10:50:27 ******* PSpice 17.4.0 (Nov 2018) ******* ID# 0 ********

 ** Profile: "SCHEMATIC1-AC"  [ D:\Ian_Jung\workplace\PSpice\NPN_1-PSpiceFiles\SCHEMATIC1\AC.sim ] 


 ****     NOISE ANALYSIS                   TEMPERATURE =   27.000 DEG C


******************************************************************************



     FREQUENCY =  3.981E+00 HZ




 **** TRANSISTOR SQUARED NOISE VOLTAGES (SQ V/HZ)




          Q_Q1       

 RB       1.586E-24

 RC       1.628E-22

 RE       0.000E+00

 IBSN     2.072E-20

 IC       1.393E-21

 IBFN     0.000E+00

 TOTAL    2.228E-20



 **** RESISTOR SQUARED NOISE VOLTAGES (SQ V/HZ)




          R_R1       R_RB1      R_RB2      R_RC       R_RE       R_RL       

 TOTAL    9.306E-23  3.392E-22  6.155E-22  1.593E-23  0.000E+00  1.640E-17





 **** TOTAL OUTPUT NOISE VOLTAGE         =  1.643E-17 SQ V/HZ

                                         =  4.053E-09 V/RT HZ

      TRANSFER FUNCTION VALUE:

        V(OUT)/V_Vsig                    =  2.369E-03

      EQUIVALENT INPUT NOISE AT V_Vsig =  1.711E-06 V/RT HZ

**** 08/01/23 10:50:27 ******* PSpice 17.4.0 (Nov 2018) ******* ID# 0 ********

 ** Profile: "SCHEMATIC1-AC"  [ D:\Ian_Jung\workplace\PSpice\NPN_1-PSpiceFiles\SCHEMATIC1\AC.sim ] 


 ****     NOISE ANALYSIS                   TEMPERATURE =   27.000 DEG C


******************************************************************************



     FREQUENCY =  5.012E+00 HZ




 **** TRANSISTOR SQUARED NOISE VOLTAGES (SQ V/HZ)




          Q_Q1       

 RB       3.443E-24

 RC       2.565E-22

 RE       0.000E+00

 IBSN     3.261E-20

 IC       2.200E-21

 IBFN     0.000E+00

 TOTAL    3.507E-20



 **** RESISTOR SQUARED NOISE VOLTAGES (SQ V/HZ)




          R_R1       R_RB1      R_RB2      R_RC       R_RE       R_RL       

 TOTAL    2.314E-22  5.338E-22  9.688E-22  2.515E-23  0.000E+00  1.631E-17





 **** TOTAL OUTPUT NOISE VOLTAGE         =  1.634E-17 SQ V/HZ

                                         =  4.043E-09 V/RT HZ

      TRANSFER FUNCTION VALUE:

        V(OUT)/V_Vsig                    =  3.736E-03

      EQUIVALENT INPUT NOISE AT V_Vsig =  1.082E-06 V/RT HZ

**** 08/01/23 10:50:27 ******* PSpice 17.4.0 (Nov 2018) ******* ID# 0 ********

 ** Profile: "SCHEMATIC1-AC"  [ D:\Ian_Jung\workplace\PSpice\NPN_1-PSpiceFiles\SCHEMATIC1\AC.sim ] 


 ****     NOISE ANALYSIS                   TEMPERATURE =   27.000 DEG C


******************************************************************************



     FREQUENCY =  6.310E+00 HZ




 **** TRANSISTOR SQUARED NOISE VOLTAGES (SQ V/HZ)




          Q_Q1       

 RB       7.730E-24

 RC       4.027E-22

 RE       0.000E+00

 IBSN     5.113E-20

 IC       3.466E-21

 IBFN     0.000E+00

 TOTAL    5.501E-20



 **** RESISTOR SQUARED NOISE VOLTAGES (SQ V/HZ)




          R_R1       R_RB1      R_RB2      R_RC       R_RE       R_RL       

 TOTAL    5.719E-22  8.369E-22  1.519E-21  3.962E-23  0.000E+00  1.615E-17





 **** TOTAL OUTPUT NOISE VOLTAGE         =  1.621E-17 SQ V/HZ

                                         =  4.026E-09 V/RT HZ

      TRANSFER FUNCTION VALUE:

        V(OUT)/V_Vsig                    =  5.874E-03

      EQUIVALENT INPUT NOISE AT V_Vsig =  6.854E-07 V/RT HZ

**** 08/01/23 10:50:27 ******* PSpice 17.4.0 (Nov 2018) ******* ID# 0 ********

 ** Profile: "SCHEMATIC1-AC"  [ D:\Ian_Jung\workplace\PSpice\NPN_1-PSpiceFiles\SCHEMATIC1\AC.sim ] 


 ****     NOISE ANALYSIS                   TEMPERATURE =   27.000 DEG C


******************************************************************************



     FREQUENCY =  7.943E+00 HZ




 **** TRANSISTOR SQUARED NOISE VOLTAGES (SQ V/HZ)




          Q_Q1       

 RB       1.773E-23

 RC       6.288E-22

 RE       0.000E+00

 IBSN     7.968E-20

 IC       5.442E-21

 IBFN     0.000E+00

 TOTAL    8.577E-20



 **** RESISTOR SQUARED NOISE VOLTAGES (SQ V/HZ)




          R_R1       R_RB1      R_RB2      R_RC       R_RE       R_RL       

 TOTAL    1.401E-21  1.304E-21  2.366E-21  6.220E-23  0.000E+00  1.591E-17





 **** TOTAL OUTPUT NOISE VOLTAGE         =  1.600E-17 SQ V/HZ

                                         =  4.001E-09 V/RT HZ

      TRANSFER FUNCTION VALUE:

        V(OUT)/V_Vsig                    =  9.193E-03

      EQUIVALENT INPUT NOISE AT V_Vsig =  4.352E-07 V/RT HZ

**** 08/01/23 10:50:27 ******* PSpice 17.4.0 (Nov 2018) ******* ID# 0 ********

 ** Profile: "SCHEMATIC1-AC"  [ D:\Ian_Jung\workplace\PSpice\NPN_1-PSpiceFiles\SCHEMATIC1\AC.sim ] 


 ****     NOISE ANALYSIS                   TEMPERATURE =   27.000 DEG C


******************************************************************************



     FREQUENCY =  1.000E+01 HZ




 **** TRANSISTOR SQUARED NOISE VOLTAGES (SQ V/HZ)




          Q_Q1       

 RB       4.098E-23

 RC       9.740E-22

 RE       0.000E+00

 IBSN     1.230E-19

 IC       8.499E-21

 IBFN     0.000E+00

 TOTAL    1.325E-19



 **** RESISTOR SQUARED NOISE VOLTAGES (SQ V/HZ)




          R_R1       R_RB1      R_RB2      R_RC       R_RE       R_RL       

 TOTAL    3.383E-21  2.012E-21  3.652E-21  9.709E-23  0.000E+00  1.555E-17





 **** TOTAL OUTPUT NOISE VOLTAGE         =  1.569E-17 SQ V/HZ

                                         =  3.961E-09 V/RT HZ

      TRANSFER FUNCTION VALUE:

        V(OUT)/V_Vsig                    =  1.429E-02

      EQUIVALENT INPUT NOISE AT V_Vsig =  2.773E-07 V/RT HZ

**** 08/01/23 10:50:27 ******* PSpice 17.4.0 (Nov 2018) ******* ID# 0 ********

 ** Profile: "SCHEMATIC1-AC"  [ D:\Ian_Jung\workplace\PSpice\NPN_1-PSpiceFiles\SCHEMATIC1\AC.sim ] 


 ****     NOISE ANALYSIS                   TEMPERATURE =   27.000 DEG C


******************************************************************************



     FREQUENCY =  1.259E+01 HZ




 **** TRANSISTOR SQUARED NOISE VOLTAGES (SQ V/HZ)




          Q_Q1       

 RB       9.412E-23

 RC       1.490E-21

 RE       0.000E+00

 IBSN     1.872E-19

 IC       1.316E-20

 IBFN     0.000E+00

 TOTAL    2.020E-19



 **** RESISTOR SQUARED NOISE VOLTAGES (SQ V/HZ)




          R_R1       R_RB1      R_RB2      R_RC       R_RE       R_RL       

 TOTAL    7.998E-21  3.062E-21  5.557E-21  1.503E-22  0.000E+00  1.501E-17





 **** TOTAL OUTPUT NOISE VOLTAGE         =  1.522E-17 SQ V/HZ

                                         =  3.902E-09 V/RT HZ

      TRANSFER FUNCTION VALUE:

        V(OUT)/V_Vsig                    =  2.197E-02

      EQUIVALENT INPUT NOISE AT V_Vsig =  1.776E-07 V/RT HZ

**** 08/01/23 10:50:27 ******* PSpice 17.4.0 (Nov 2018) ******* ID# 0 ********

 ** Profile: "SCHEMATIC1-AC"  [ D:\Ian_Jung\workplace\PSpice\NPN_1-PSpiceFiles\SCHEMATIC1\AC.sim ] 


 ****     NOISE ANALYSIS                   TEMPERATURE =   27.000 DEG C


******************************************************************************



     FREQUENCY =  1.585E+01 HZ




 **** TRANSISTOR SQUARED NOISE VOLTAGES (SQ V/HZ)




          Q_Q1       

 RB       2.116E-22

 RC       2.238E-21

 RE       0.000E+00

 IBSN     2.791E-19

 IC       2.014E-20

 IBFN     0.000E+00

 TOTAL    3.017E-19



 **** RESISTOR SQUARED NOISE VOLTAGES (SQ V/HZ)




          R_R1       R_RB1      R_RB2      R_RC       R_RE       R_RL       

 TOTAL    1.831E-20  4.562E-21  8.278E-21  2.297E-22  0.000E+00  1.422E-17





 **** TOTAL OUTPUT NOISE VOLTAGE         =  1.455E-17 SQ V/HZ

                                         =  3.814E-09 V/RT HZ

      TRANSFER FUNCTION VALUE:

        V(OUT)/V_Vsig                    =  3.324E-02

      EQUIVALENT INPUT NOISE AT V_Vsig =  1.148E-07 V/RT HZ

**** 08/01/23 10:50:27 ******* PSpice 17.4.0 (Nov 2018) ******* ID# 0 ********

 ** Profile: "SCHEMATIC1-AC"  [ D:\Ian_Jung\workplace\PSpice\NPN_1-PSpiceFiles\SCHEMATIC1\AC.sim ] 


 ****     NOISE ANALYSIS                   TEMPERATURE =   27.000 DEG C


******************************************************************************



     FREQUENCY =  1.995E+01 HZ




 **** TRANSISTOR SQUARED NOISE VOLTAGES (SQ V/HZ)




          Q_Q1       

 RB       4.573E-22

 RC       3.275E-21

 RE       0.000E+00

 IBSN     4.040E-19

 IC       3.023E-20

 IBFN     0.000E+00

 TOTAL    4.379E-19



 **** RESISTOR SQUARED NOISE VOLTAGES (SQ V/HZ)




          R_R1       R_RB1      R_RB2      R_RC       R_RE       R_RL       

 TOTAL    4.006E-20  6.597E-21  1.197E-20  3.444E-22  0.000E+00  1.312E-17





 **** TOTAL OUTPUT NOISE VOLTAGE         =  1.362E-17 SQ V/HZ

                                         =  3.690E-09 V/RT HZ

      TRANSFER FUNCTION VALUE:

        V(OUT)/V_Vsig                    =  4.916E-02

      EQUIVALENT INPUT NOISE AT V_Vsig =  7.506E-08 V/RT HZ

**** 08/01/23 10:50:27 ******* PSpice 17.4.0 (Nov 2018) ******* ID# 0 ********

 ** Profile: "SCHEMATIC1-AC"  [ D:\Ian_Jung\workplace\PSpice\NPN_1-PSpiceFiles\SCHEMATIC1\AC.sim ] 


 ****     NOISE ANALYSIS                   TEMPERATURE =   27.000 DEG C


******************************************************************************



     FREQUENCY =  2.512E+01 HZ




 **** TRANSISTOR SQUARED NOISE VOLTAGES (SQ V/HZ)




          Q_Q1       

 RB       9.322E-22

 RC       4.627E-21

 RE       0.000E+00

 IBSN     5.621E-19

 IC       4.419E-20

 IBFN     0.000E+00

 TOTAL    6.119E-19



 **** RESISTOR SQUARED NOISE VOLTAGES (SQ V/HZ)




          R_R1       R_RB1      R_RB2      R_RC       R_RE       R_RL       

 TOTAL    8.228E-20  9.169E-21  1.664E-20  5.027E-22  0.000E+00  1.169E-17





 **** TOTAL OUTPUT NOISE VOLTAGE         =  1.241E-17 SQ V/HZ

                                         =  3.523E-09 V/RT HZ

      TRANSFER FUNCTION VALUE:

        V(OUT)/V_Vsig                    =  7.045E-02

      EQUIVALENT INPUT NOISE AT V_Vsig =  5.000E-08 V/RT HZ

**** 08/01/23 10:50:27 ******* PSpice 17.4.0 (Nov 2018) ******* ID# 0 ********

 ** Profile: "SCHEMATIC1-AC"  [ D:\Ian_Jung\workplace\PSpice\NPN_1-PSpiceFiles\SCHEMATIC1\AC.sim ] 


 ****     NOISE ANALYSIS                   TEMPERATURE =   27.000 DEG C


******************************************************************************



     FREQUENCY =  3.162E+01 HZ




 **** TRANSISTOR SQUARED NOISE VOLTAGES (SQ V/HZ)


