
**** 08/03/23 15:43:39 ******* PSpice 17.4.0 (Nov 2018) ******* ID# 0 ********

 ** Profile: "SCHEMATIC1-AC"  [ D:\Ian_Jung\workplace\PSpice\LPF_HPF_sum-PSpiceFiles\SCHEMATIC1\AC.sim ] 


 ****     CIRCUIT DESCRIPTION


******************************************************************************




** Creating circuit file "AC.cir" 
** WARNING: THIS AUTOMATICALLY GENERATED FILE MAY BE OVERWRITTEN BY SUBSEQUENT SIMULATIONS

*Libraries: 
* Profile Libraries :
* Local Libraries :
* From [PSPICE NETLIST] section of C:\SPB_Data\cdssetup\OrCAD_PSpice\17.4.0\PSpice.ini file:
.lib "nom.lib" 

*Analysis directives: 
.AC DEC 101 1k 100k
.OPTIONS ADVCONV
.PROBE64 V(alias(*)) I(alias(*)) W(alias(*)) D(alias(*)) NOISE(alias(*)) 
.INC "..\SCHEMATIC1.net" 



**** INCLUDING SCHEMATIC1.net ****
* source LPF_HPF_SUM
V_V2         VCC 0 5Vdc
V_V3         EI 0 DC 2.5Vdc AC 1Vac 
C_C3         0 REF  1u  TC=0,0 
R_R7         REF 0  {R} TC=0,0 
R_R6         VCC REF  {R} TC=0,0 
X_U5A         REF N20993 VCC 0 LOW_HIGH TLC1078/101/TI
C_C7         EI N20997  360n  TC=0,0 
R_R10         N20993 LOW_HIGH  3k TC=0,0 
R_R11         N20997 N20993  3k TC=0,0 
X_U3A         N21804 LOW_PASS_1 VCC 0 LOW_PASS_1 TLC1078/101/TI
C_C5         N21706 LOW_PASS_1  330n  TC=0,0 
R_R8         LOW_HIGH N21706  560 TC=0,0 
C_C4         0 N21804  1n  TC=0,0 
R_R1         N21706 N21804  39k TC=0,0 
C_C9         VCC 0  10n  TC=0,0 
C_C12         VCC 0  10n  TC=0,0 
C_C11         0 N23228  1n  TC=0,0 
X_U5B         N23228 LOW_PASS_2 VCC 0 LOW_PASS_2 TLC1078/101/TI
R_R12         LOW_PASS_1 N23122  2.4h TC=0,0 
R_R13         N23122 N23228  39k TC=0,0 
C_C10         N23122 LOW_PASS_2  330n  TC=0,0 
.PARAM  c=1500pf r=7.5k

**** RESUMING AC.cir ****
.END

**** 08/03/23 15:43:39 ******* PSpice 17.4.0 (Nov 2018) ******* ID# 0 ********

 ** Profile: "SCHEMATIC1-AC"  [ D:\Ian_Jung\workplace\PSpice\LPF_HPF_sum-PSpiceFiles\SCHEMATIC1\AC.sim ] 


 ****     Diode MODEL PARAMETERS


******************************************************************************




               X_U5A.DX        X_U3A.DX        X_U5B.DX        
          IS  800.000000E-18  800.000000E-18  800.000000E-18 


**** 08/03/23 15:43:39 ******* PSpice 17.4.0 (Nov 2018) ******* ID# 0 ********

 ** Profile: "SCHEMATIC1-AC"  [ D:\Ian_Jung\workplace\PSpice\LPF_HPF_sum-PSpiceFiles\SCHEMATIC1\AC.sim ] 


 ****     Junction FET MODEL PARAMETERS


******************************************************************************




               X_U5A.JX        X_U3A.JX        X_U5B.JX        
               PJF             PJF             PJF             
         VTO     .039            .039            .039        
        BETA  340.000000E-06  340.000000E-06  340.000000E-06 
          IS  350.000000E-15  350.000000E-15  350.000000E-15 


**** 08/03/23 15:43:39 ******* PSpice 17.4.0 (Nov 2018) ******* ID# 0 ********

 ** Profile: "SCHEMATIC1-AC"  [ D:\Ian_Jung\workplace\PSpice\LPF_HPF_sum-PSpiceFiles\SCHEMATIC1\AC.sim ] 


 ****     SMALL SIGNAL BIAS SOLUTION       TEMPERATURE =   27.000 DEG C


******************************************************************************



 NODE   VOLTAGE     NODE   VOLTAGE     NODE   VOLTAGE     NODE   VOLTAGE


(   EI)    2.5000  (  REF)    2.5000  (  VCC)    5.0000  (N20993)    2.5000     

(N20997)    2.5000 (N21706)    2.5000 (N21804)    2.5000 (N23122)    2.5000     

(N23228)    2.5000 (X_U3A.6)-101.4E-09                   (X_U3A.7)    2.5000    

(X_U3A.8)    2.5000                   (X_U3A.9)    0.0000                       

(X_U5A.6)-101.4E-09                   (X_U5A.7)    2.5000                       

(X_U5A.8)    2.5000                   (X_U5A.9)    0.0000                       

(X_U5B.6)-101.4E-09                   (X_U5B.7)    2.5000                       

(X_U5B.8)    2.5000                   (X_U5B.9)    0.0000                       

(LOW_HIGH)    2.5000                  (X_U3A.10)    2.5712                      

(X_U3A.11)    -.4837                  (X_U3A.12)    -.4837                      

(X_U3A.53)    3.4000                  (X_U3A.54)     .5400                      

(X_U3A.60)    -.5000                  (X_U3A.90)-3.523E-09                      

(X_U3A.91)   25.0000                  (X_U3A.92)  -25.0000                      

(X_U3A.99)    2.5000                  (X_U5A.10)    2.5712                      

(X_U5A.11)    -.4837                  (X_U5A.12)    -.4837                      

(X_U5A.53)    3.4000                  (X_U5A.54)     .5400                      

(X_U5A.60)    -.5000                  (X_U5A.90)-2.693E-09                      

(X_U5A.91)   25.0000                  (X_U5A.92)  -25.0000                      

(X_U5A.99)    2.5000                  (X_U5B.10)    2.5712                      

(X_U5B.11)    -.4837                  (X_U5B.12)    -.4837                      

(X_U5B.53)    3.4000                  (X_U5B.54)     .5400                      

(X_U5B.60)    -.5000                  (X_U5B.90)-816.6E-12                      

(X_U5B.91)   25.0000                  (X_U5B.92)  -25.0000                      

(X_U5B.99)    2.5000                  (LOW_PASS_1)    2.5000                    

(LOW_PASS_2)    2.5000                




    VOLTAGE SOURCE CURRENTS
    NAME         CURRENT

    V_V2        -3.572E-04
    V_V3         0.000E+00
    X_U5A.VAD    7.047E-07
    X_U5A.VB    -1.014E-12
    X_U5A.VC     9.008E-13
    X_U5A.VE     1.961E-12
    X_U5A.VLIM  -2.693E-12
    X_U5A.VLP   -2.500E-11
    X_U5A.VLN   -2.500E-11
    X_U3A.VAD    7.047E-07
    X_U3A.VB    -1.014E-12
    X_U3A.VC     9.008E-13
    X_U3A.VE     1.961E-12
    X_U3A.VLIM  -3.523E-12
    X_U3A.VLP   -2.500E-11
    X_U3A.VLN   -2.500E-11
    X_U5B.VAD    7.047E-07
    X_U5B.VB    -1.014E-12
    X_U5B.VC     9.008E-13
    X_U5B.VE     1.961E-12
    X_U5B.VLIM  -8.166E-13
    X_U5B.VLP   -2.500E-11
    X_U5B.VLN   -2.500E-11

    TOTAL POWER DISSIPATION   1.79E-03  WATTS



          JOB CONCLUDED

**** 08/03/23 15:43:39 ******* PSpice 17.4.0 (Nov 2018) ******* ID# 0 ********

 ** Profile: "SCHEMATIC1-AC"  [ D:\Ian_Jung\workplace\PSpice\LPF_HPF_sum-PSpiceFiles\SCHEMATIC1\AC.sim ] 


 ****     JOB STATISTICS SUMMARY


******************************************************************************



  Total job time (using Solver 1)   =         .05
