
**** 07/24/23 14:11:27 ******* PSpice 17.4.0 (Nov 2018) ******* ID# 0 ********

 ** Profile: "SCHEMATIC1-bias"  [ D:\Ian_Jung\workplace\PSpice\Electric_8-PSpiceFiles\SCHEMATIC1\bias.sim ] 


 ****     CIRCUIT DESCRIPTION


******************************************************************************




** Creating circuit file "bias.cir" 
** WARNING: THIS AUTOMATICALLY GENERATED FILE MAY BE OVERWRITTEN BY SUBSEQUENT SIMULATIONS

*Libraries: 
* Profile Libraries :
* Local Libraries :
* From [PSPICE NETLIST] section of C:\SPB_Data\cdssetup\OrCAD_PSpice\17.4.0\PSpice.ini file:
.lib "nom.lib" 

*Analysis directives: 
.OPTIONS ADVCONV
.PROBE64 V(alias(*)) I(alias(*)) W(alias(*)) D(alias(*)) NOISE(alias(*)) 
.INC "..\SCHEMATIC1.net" 



**** INCLUDING SCHEMATIC1.net ****
* source ELECTRIC_8
I_I1         0 N15385 DC 6mAdc  
R_R1         0 N15385  2k TC=0,0 
R_R2         B A  2k TC=0,0 
V_V1         A N15385 2Vdc
V_V2         B 0 4Vdc
R_Rdum         B A  1m TC=0,0 
V_V3         N15943 0 1Vdc
R_R3         N15954 N15943  1k TC=0,0 
I_I2         0 N16028 DC 1mAdc  
R_R4         0 N16028  1k TC=0,0 
R_R5         0 N15954  1T TC=0,0 
R_R6         0 N16028  1m TC=0,0 

**** RESUMING bias.cir ****
.END

**** 07/24/23 14:11:27 ******* PSpice 17.4.0 (Nov 2018) ******* ID# 0 ********

 ** Profile: "SCHEMATIC1-bias"  [ D:\Ian_Jung\workplace\PSpice\Electric_8-PSpiceFiles\SCHEMATIC1\bias.sim ] 


 ****     SMALL SIGNAL BIAS SOLUTION       TEMPERATURE =   27.000 DEG C


******************************************************************************



 NODE   VOLTAGE     NODE   VOLTAGE     NODE   VOLTAGE     NODE   VOLTAGE


(    A)    4.0000  (    B)    4.0000  (N15385)    2.0000 (N15943)    1.0000     

(N15954)    1.0000 (N16028) 1.000E-06 




    VOLTAGE SOURCE CURRENTS
    NAME         CURRENT

    V_V1        -5.000E-03
    V_V2         5.000E-03
    V_V3        -1.000E-12

    TOTAL POWER DISSIPATION  -1.00E-02  WATTS



          JOB CONCLUDED

**** 07/24/23 14:11:27 ******* PSpice 17.4.0 (Nov 2018) ******* ID# 0 ********

 ** Profile: "SCHEMATIC1-bias"  [ D:\Ian_Jung\workplace\PSpice\Electric_8-PSpiceFiles\SCHEMATIC1\bias.sim ] 


 ****     JOB STATISTICS SUMMARY


******************************************************************************



  License check-out time            =         .83
  Total job time (using Solver 1)   =        0.00
