
**** 08/02/23 15:28:52 ******* PSpice 17.4.0 (Nov 2018) ******* ID# 0 ********

 ** Profile: "SCHEMATIC1-Tran"  [ D:\Ian_Jung\workplace\PSpice\Switch_circuit_2-PSpiceFiles\SCHEMATIC1\Tran.sim ] 


 ****     CIRCUIT DESCRIPTION


******************************************************************************




** Creating circuit file "Tran.cir" 
** WARNING: THIS AUTOMATICALLY GENERATED FILE MAY BE OVERWRITTEN BY SUBSEQUENT SIMULATIONS

*Libraries: 
* Profile Libraries :
* Local Libraries :
* From [PSPICE NETLIST] section of C:\SPB_Data\cdssetup\OrCAD_PSpice\17.4.0\PSpice.ini file:
.lib "nom.lib" 

*Analysis directives: 
.TRAN  0 3m 0 1u 
.OPTIONS ADVCONV
.PROBE64 V(alias(*)) I(alias(*)) W(alias(*)) D(alias(*)) NOISE(alias(*)) 
.INC "..\SCHEMATIC1.net" 



**** INCLUDING SCHEMATIC1.net ****
* source SWITCH_CIRCUIT_2
R_R1         N15108 N15244  {rg} TC=0,0 
U_DSTM1         STIM(1,1) $G_DPWR $G_DGND N15108 IO_STM IO_LEVEL=0 
+ 0 0
+ +.5mS 1
+REPEAT FOREVER
+ +.5mS 0
+  +.5mS 1
+ ENDREPEAT
V_V3         N14980 0 5Vdc
X_M2         N15388 N15244 0 2N7002/FAI
R_R2         N15384 N14980  {rd} TC=0,0 
R_R4         N15112 N15108  {rg} TC=0,0 
R_R3         N15392 N150922  {rd} TC=0,0 
X_M3         N150922 N15112 N14980 BS250/PLP
D_D1         N15384 N15388 D1N3063 
D_D2         N15392 0 D1N3063 
.PARAM  rg=10k rd=100

**** RESUMING Tran.cir ****
.END


**** Generated AtoD and DtoA Interfaces ****

*
* Analog/Digital interface for node N15108
*
* Moving U_DSTM1:OUT1 from analog node N15108 to new digital node N15108$DtoA
X$N15108_DtoA1
+ N15108$DtoA
+ N15108
+ $G_DPWR
+ $G_DGND
+ DtoA_STM
+       PARAMS: DRVH=   0      DRVL=   0      CAPACITANCE=   0     
*
* Analog/Digital interface power supply subcircuits
*
X$DIGIFPWR 0 DIGIFPWR


**** 08/02/23 15:28:52 ******* PSpice 17.4.0 (Nov 2018) ******* ID# 0 ********

 ** Profile: "SCHEMATIC1-Tran"  [ D:\Ian_Jung\workplace\PSpice\Switch_circuit_2-PSpiceFiles\SCHEMATIC1\Tran.sim ] 


 ****     Diode MODEL PARAMETERS


******************************************************************************




               D1N3063         X_M2.DDS        X_M2.DBODY      X_M2.DGD        
          IS    2.989000E-09   10.000000E-15  140.000000E-15   10.000000E-15 
           N    1.704                                                        
         ISR  100.000000E-12                                                 
         IKF   26.84                                                         
          BV   75              60.0864                                       
         IBV    5.000000E-06                                                 
          RS    3.886                            .04                         
          TT    5.771000E-09                  100.000000E-09                 
         CJO    2.000000E-12   23.000000E-12                   85.000000E-12 
          VJ     .75             .8                              .12         
           M     .3333           .36                             .53         


               X_M3.Dbody      
          IS   75.320000E-15 
           N    1.016        
          BV   45            
         IBV   10.000000E-06 
          RS    1.245        
          TT   86.560000E-09 
         CJO   53.220000E-12 
          VJ     .5392       
           M     .3583       


**** 08/02/23 15:28:52 ******* PSpice 17.4.0 (Nov 2018) ******* ID# 0 ********

 ** Profile: "SCHEMATIC1-Tran"  [ D:\Ian_Jung\workplace\PSpice\Switch_circuit_2-PSpiceFiles\SCHEMATIC1\Tran.sim ] 


 ****     MOSFET MODEL PARAMETERS


******************************************************************************




               X_M2.DMOS       X_M2.INTER      X_M3.MOST1      X_M3.MOST2      
               NMOS            NMOS            PMOS            PMOS            
       LEVEL    3               1               3               1            
           L  100.000000E-06  100.000000E-06    2.000000E-06    2.000000E-06 
           W  100.000000E-06  100.000000E-06    7.600000E-03    7.600000E-03 
         VTO    2.09328         0              -2.3             2.43         
          KP     .35           10              10.330000E-06   10.330000E-06 
       GAMMA    0               0               0               0            
         PHI     .6              .6              .6              .6          
      LAMBDA    0               0               0               0            
          RD                                    4.014                        
          RS                                     .02             .02         
          IS   10.000000E-15   10.000000E-15   10.000000E-15   10.000000E-15 
          JS    0               0               0               0            
          PB     .8              .8              .8              .8          
        PBSW     .8              .8              .8              .8          
          CJ    0               0               0               0            
        CJSW    0               0               0               0            
        CGSO    0               0               0               0            
        CGDO    0               0               0               0            
        CGBO    0               0               0               0            
         TOX  100.000000E-09    0             100.000000E-09    0            
          XJ    0               0               0               0            
       UCRIT   10.000000E+03   10.000000E+03   10.000000E+03   10.000000E+03 
        VMAX  220.000000E+03                                                 
       THETA     .086                                                        
      DIOMOD    1               1               1               1            
         VFB    0               0               0               0            
        LETA    0               0               0               0            
        WETA    0               0               0               0            
          U0    0               0               0               0            
        TEMP    0               0               0               0            
         VDD    5               5               5               5            
       XPART    0               0               0               0            


**** 08/02/23 15:28:52 ******* PSpice 17.4.0 (Nov 2018) ******* ID# 0 ********

 ** Profile: "SCHEMATIC1-Tran"  [ D:\Ian_Jung\workplace\PSpice\Switch_circuit_2-PSpiceFiles\SCHEMATIC1\Tran.sim ] 


 ****     Digital Input MODEL PARAMETERS


******************************************************************************




               DINSTM          
      S0NAME 0               
       S0TSW  500.000000E-12 
       S0RLO     .5          
       S0RHI    1.000000E+03 
      S1NAME 1               
       S1TSW  500.000000E-12 
       S1RLO    1.000000E+03 
       S1RHI     .5          
      S2NAME X               
       S2TSW  500.000000E-12 
       S2RLO     .429        
       S2RHI    1.16         
      S3NAME R               
       S3TSW  500.000000E-12 
       S3RLO     .429        
       S3RHI    1.16         
      S4NAME F               
       S4TSW  500.000000E-12 
       S4RLO     .429        
       S4RHI    1.16         
      S5NAME Z               
       S5TSW  500.000000E-12 
       S5RLO    1.000000E+06 
       S5RHI    1.000000E+06 


**** 08/02/23 15:28:52 ******* PSpice 17.4.0 (Nov 2018) ******* ID# 0 ********

 ** Profile: "SCHEMATIC1-Tran"  [ D:\Ian_Jung\workplace\PSpice\Switch_circuit_2-PSpiceFiles\SCHEMATIC1\Tran.sim ] 


 ****     Digital IO  MODEL PARAMETERS


******************************************************************************




               IO_STM          
        DRVL    0            
        DRVH    0            
       DtoA1 DtoA_STM        
       DtoA2 DtoA_STM        
       DtoA3 DtoA_STM        
       DtoA4 DtoA_STM        
       TPWRT  100.000000E+03 


**** 08/02/23 15:28:52 ******* PSpice 17.4.0 (Nov 2018) ******* ID# 0 ********

 ** Profile: "SCHEMATIC1-Tran"  [ D:\Ian_Jung\workplace\PSpice\Switch_circuit_2-PSpiceFiles\SCHEMATIC1\Tran.sim ] 


 ****     INITIAL TRANSIENT SOLUTION       TEMPERATURE =   27.000 DEG C


******************************************************************************



 NODE   VOLTAGE     NODE   VOLTAGE     NODE   VOLTAGE     NODE   VOLTAGE


(N14980)    5.0000 (N15108)     .0025 (N15112)     .0025 (N15244)     .0073     

(N15384)    5.0000 (N15388)    4.7767 (N15392)     .8598 (X_M2.1)     .0073     

(X_M2.2)    4.7767 (X_M2.3) 144.9E-15 (X_M2.4)    4.7767 (X_M2.5)    0.0000     

(X_M2.6)     .0073 (X_M2.7)    4.7767 (X_M2.8)    9.5462 (X_M2.9)   -9.5316     

(X_M3.4)    4.4861 ($G_DGND)    0.0000                   ($G_DPWR)    5.0000    

(N150922)    4.4861                   



 DGTL NODE : STATE  DGTL NODE : STATE  DGTL NODE : STATE  DGTL NODE : STATE


(N15108$DtoA) : 0  




    VOLTAGE SOURCE CURRENTS
    NAME         CURRENT

    V_V3        -3.626E-02
    X$DIGIFPWR.VDPWR  -5.003E-03
    X$DIGIFPWR.VDGND  -4.523E-06

    TOTAL POWER DISSIPATION   2.06E-01  WATTS



          JOB CONCLUDED

**** 08/02/23 15:28:52 ******* PSpice 17.4.0 (Nov 2018) ******* ID# 0 ********

 ** Profile: "SCHEMATIC1-Tran"  [ D:\Ian_Jung\workplace\PSpice\Switch_circuit_2-PSpiceFiles\SCHEMATIC1\Tran.sim ] 


 ****     JOB STATISTICS SUMMARY


******************************************************************************



  License check-out time            =         .61
  Total job time (using Solver 1)   =         .17
