
**** 08/29/23 12:26:54 ******* PSpice 17.4.0 (Nov 2018) ******* ID# 0 ********

 ** Profile: "SCHEMATIC1-Tran"  [ D:\Ian_Jung\workplace\PSpice\Buck-PSpiceFiles\SCHEMATIC1\Tran.sim ] 


 ****     CIRCUIT DESCRIPTION


******************************************************************************




** Creating circuit file "Tran.cir" 
** WARNING: THIS AUTOMATICALLY GENERATED FILE MAY BE OVERWRITTEN BY SUBSEQUENT SIMULATIONS

*Libraries: 
* Profile Libraries :
* Local Libraries :
* From [PSPICE NETLIST] section of C:\SPB_Data\cdssetup\OrCAD_PSpice\17.4.0\PSpice.ini file:
.lib "nom.lib" 

*Analysis directives: 
.TRAN  0 600us 0 1m 
.OPTIONS ADVCONV
.PROBE64 V(alias(*)) I(alias(*)) W(alias(*)) D(alias(*)) NOISE(alias(*)) 
.INC "..\SCHEMATIC1.net" 



**** INCLUDING SCHEMATIC1.net ****
* source BUCK
X_M1         N15023 N14795 N14788 Si2301BDS
R_R1         N14799 N14795  100 TC=0,0 
D_D1         0 N15023 Dbreak 
D_D2         N14826 N14853 Dbreak 
R_R2         N14849 N14845  100 TC=0,0 
X_M2         N14826 N14845 0 SI2302ADS
U_DSTM1         STIM(1,1) $G_DPWR $G_DGND N14799 IO_STM IO_LEVEL=0 
+ 0 0
+ +1uS 1
+REPEAT FOREVER
+ +1uS 0
+  +1uS 1
+ ENDREPEAT
U_DSTM2         STIM(1,1) $G_DPWR $G_DGND N14849 IO_STM IO_LEVEL=0 
+ 0 0
+ +1uS 1
+REPEAT FOREVER
+ +1uS 0
+  +1uS 1
+ ENDREPEAT
V_V1         N14788 0 5Vdc
C_C1         0 N15037  {C}  TC=0,0 
I_I1         N15037 0 DC 0.5Adc  
C_C2         0 N14853  {C}  TC=0,0 
I_I2         N14853 0 DC 0.5Adc  
L_L1         N14788 N14826  10uH  
L_L2         N15023 N15037  {L}  
.PARAM  l=6.8uh c=10uf duty=0.5

**** RESUMING Tran.cir ****
.END


**** Generated AtoD and DtoA Interfaces ****

*
* Analog/Digital interface for node N14799
*
* Moving U_DSTM1:OUT1 from analog node N14799 to new digital node N14799$DtoA
X$N14799_DtoA1
+ N14799$DtoA
+ N14799
+ $G_DPWR
+ $G_DGND
+ DtoA_STM
+       PARAMS: DRVH=   0      DRVL=   0      CAPACITANCE=   0     
*
* Analog/Digital interface for node N14849
*
* Moving U_DSTM2:OUT1 from analog node N14849 to new digital node N14849$DtoA
X$N14849_DtoA1
+ N14849$DtoA
+ N14849
+ $G_DPWR
+ $G_DGND
+ DtoA_STM
+       PARAMS: DRVH=   0      DRVL=   0      CAPACITANCE=   0     
*
* Analog/Digital interface power supply subcircuits
*
X$DIGIFPWR 0 DIGIFPWR


**** 08/29/23 12:26:54 ******* PSpice 17.4.0 (Nov 2018) ******* ID# 0 ********

 ** Profile: "SCHEMATIC1-Tran"  [ D:\Ian_Jung\workplace\PSpice\Buck-PSpiceFiles\SCHEMATIC1\Tran.sim ] 


 ****     Diode MODEL PARAMETERS


******************************************************************************




               Dbreak          X_M1.DBD        X_M2.DBD        
          IS   10.000000E-15    1.000000E-12    1.000000E-12 
          BV                   20.5            20.3          
          RS     .1                              .1          
          TT                   50.000000E-09   50.000000E-09 
         CJO  100.000000E-15   40.000000E-12   90.000000E-12 
          VJ                     .38             .38         
           M                     .22             .2          


**** 08/29/23 12:26:54 ******* PSpice 17.4.0 (Nov 2018) ******* ID# 0 ********

 ** Profile: "SCHEMATIC1-Tran"  [ D:\Ian_Jung\workplace\PSpice\Buck-PSpiceFiles\SCHEMATIC1\Tran.sim ] 


 ****     MOSFET MODEL PARAMETERS


******************************************************************************




               X_M1.PMOS       X_M1.NMOS       X_M2.NMOS       X_M2.PMOS       
               PMOS            NMOS            NMOS            PMOS            
       LEVEL    3               3               3               3            
         TPG   -1              -1                              -1            
           L  100.000000E-06  100.000000E-06  100.000000E-06  100.000000E-06 
           W  100.000000E-06  100.000000E-06  100.000000E-06  100.000000E-06 
         VTO   -1.091295        1.774342        1.903763       -2.810764     
          KP   20.000000E-06  121.875700E-06   23.000000E-06   69.062880E-06 
       GAMMA     .237314         .896963        2.210366        2.002197     
         PHI     .676983         .814542         .849088         .838855     
      LAMBDA    0               0               0               0            
          RS     .04                             .022                        
          IS    0              10.000000E-15    0              10.000000E-15 
          JS    0               0               0               0            
          PB     .8              .8              .8              .8          
        PBSW     .8              .8              .8              .8          
          CJ  269.472400E-06    1.018510E-03    1.422272E-03    1.288324E-03 
        CJSW    0               0               0               0            
        CGSO    0               0               0               0            
        CGDO    0               0               0               0            
        CGBO    0               0               0               0            
        NSUB    7.000000E+15  100.000000E+15  195.000000E+15  160.000000E+15 
         NFS  800.000000E+09                  800.000000E+09                 
         TOX   17.000000E-09   17.000000E-09   30.000000E-09   30.000000E-09 
          XJ  500.000000E-09    0             500.000000E-09    0            
          UO  400                             650                            
       UCRIT   10.000000E+03   10.000000E+03   10.000000E+03   10.000000E+03 
       DELTA     .1                              .1                          
         ETA  100.000000E-06                  100.000000E-06                 
       KAPPA    4.000000E-03                     .05                         
      DIOMOD    1               1               1               1            
         VFB    0               0               0               0            
        LETA    0               0               0               0            
        WETA    0               0               0               0            
          U0    0               0               0               0            
        TEMP    0               0               0               0            
         VDD    5               5               5               5            
       XPART    0               0               0               0            


**** 08/29/23 12:26:54 ******* PSpice 17.4.0 (Nov 2018) ******* ID# 0 ********

 ** Profile: "SCHEMATIC1-Tran"  [ D:\Ian_Jung\workplace\PSpice\Buck-PSpiceFiles\SCHEMATIC1\Tran.sim ] 


 ****     Resistor MODEL PARAMETERS


******************************************************************************




               X_M1.RTEMP      X_M2.RTEMP      
           R    1               1            
         TC1    6.500000E-03     .01         
         TC2    5.500000E-06    5.500000E-06 


**** 08/29/23 12:26:54 ******* PSpice 17.4.0 (Nov 2018) ******* ID# 0 ********

 ** Profile: "SCHEMATIC1-Tran"  [ D:\Ian_Jung\workplace\PSpice\Buck-PSpiceFiles\SCHEMATIC1\Tran.sim ] 


 ****     Digital Input MODEL PARAMETERS


******************************************************************************




               DINSTM          
      S0NAME 0               
       S0TSW  500.000000E-12 
       S0RLO     .5          
       S0RHI    1.000000E+03 
      S1NAME 1               
       S1TSW  500.000000E-12 
       S1RLO    1.000000E+03 
       S1RHI     .5          
      S2NAME X               
       S2TSW  500.000000E-12 
       S2RLO     .429        
       S2RHI    1.16         
      S3NAME R               
       S3TSW  500.000000E-12 
       S3RLO     .429        
       S3RHI    1.16         
      S4NAME F               
       S4TSW  500.000000E-12 
       S4RLO     .429        
       S4RHI    1.16         
      S5NAME Z               
       S5TSW  500.000000E-12 
       S5RLO    1.000000E+06 
       S5RHI    1.000000E+06 


**** 08/29/23 12:26:54 ******* PSpice 17.4.0 (Nov 2018) ******* ID# 0 ********

 ** Profile: "SCHEMATIC1-Tran"  [ D:\Ian_Jung\workplace\PSpice\Buck-PSpiceFiles\SCHEMATIC1\Tran.sim ] 


 ****     Digital IO  MODEL PARAMETERS


******************************************************************************




               IO_STM          
        DRVL    0            
        DRVH    0            
       DtoA1 DtoA_STM        
       DtoA2 DtoA_STM        
       DtoA3 DtoA_STM        
       DtoA4 DtoA_STM        
       TPWRT  100.000000E+03 


**** 08/29/23 12:26:54 ******* PSpice 17.4.0 (Nov 2018) ******* ID# 0 ********

 ** Profile: "SCHEMATIC1-Tran"  [ D:\Ian_Jung\workplace\PSpice\Buck-PSpiceFiles\SCHEMATIC1\Tran.sim ] 


 ****     INITIAL TRANSIENT SOLUTION       TEMPERATURE =   27.000 DEG C


******************************************************************************



 NODE   VOLTAGE     NODE   VOLTAGE     NODE   VOLTAGE     NODE   VOLTAGE


(N14788)    5.0000 (N14795)     .0025 (N14799)     .0025 (N14826)    5.0000     

(N14845)     .0025 (N14849)     .0025 (N14853)    4.1342 (N15023)    4.9548     

(N15037)    4.9548 (X_M1.3)    4.9723 (X_M2.3)    5.0000 ($G_DGND)    0.0000    

($G_DPWR)    5.0000                   



 DGTL NODE : STATE  DGTL NODE : STATE  DGTL NODE : STATE  DGTL NODE : STATE


(N14849$DtoA) : 0  (N14799$DtoA) : 0  




    VOLTAGE SOURCE CURRENTS
    NAME         CURRENT

    V_V1        -1.000E+00
    X$DIGIFPWR.VDPWR  -1.000E-02
    X$DIGIFPWR.VDGND  -5.000E-06

    TOTAL POWER DISSIPATION   5.05E+00  WATTS



          JOB CONCLUDED

**** 08/29/23 12:26:54 ******* PSpice 17.4.0 (Nov 2018) ******* ID# 0 ********

 ** Profile: "SCHEMATIC1-Tran"  [ D:\Ian_Jung\workplace\PSpice\Buck-PSpiceFiles\SCHEMATIC1\Tran.sim ] 


 ****     JOB STATISTICS SUMMARY


******************************************************************************



  License check-out time            =        6.19
  Total job time (using Solver 1)   =        2.00
